time	V(in)	V(out)
0.000000000000000e+00	0.000000e+00	0.000000e+00
9.765624940649698e-12	4.125004e+00	2.509960e+00
9.843626006063724e-12	4.125004e+00	2.520023e+00
9.999628136891778e-12	4.125004e+00	2.520341e+00
1.012385886526136e-10	4.125039e+00	2.703876e+00
1.924775491683354e-10	4.125074e+00	2.883851e+00
2.837165096840572e-10	4.125110e+00	3.060268e+00
3.749554701997790e-10	4.125145e+00	3.233126e+00
4.661944307155008e-10	4.125180e+00	3.402425e+00
5.574333912312226e-10	4.125216e+00	3.568164e+00
6.486723517469442e-10	4.125251e+00	3.730345e+00
1.287657079618653e-09	4.125497e+00	4.808248e+00
1.942706748771340e-09	4.125751e+00	5.794147e+00
2.856508901640031e-09	4.126104e+00	6.980902e+00
3.835464065043444e-09	4.126482e+00	8.018030e+00
5.672058214625893e-09	4.127192e+00	9.477467e+00
7.544937829067584e-09	4.127915e+00	1.043346e+01
9.675630021024239e-09	4.128739e+00	1.079133e+01
1.213338267039390e-08	4.129689e+00	1.018357e+01
1.469903744064680e-08	4.130680e+00	8.318723e+00
1.754281412477021e-08	4.131779e+00	5.264208e+00
1.921853610812770e-08	4.132426e+00	3.446963e+00
2.065651905094477e-08	4.132982e+00	2.289137e+00
2.239097681891229e-08	4.133652e+00	1.418902e+00
2.343705604147157e-08	4.134057e+00	1.099150e+00
2.475346292301159e-08	4.134565e+00	8.510137e-01
2.625232277809049e-08	4.135144e+00	6.630155e-01
2.812194146594967e-08	4.135867e+00	5.155253e-01
3.013377001635130e-08	4.136644e+00	4.203271e-01
3.254009708101360e-08	4.137574e+00	3.579960e-01
3.522690758426492e-08	4.138612e+00	3.268687e-01
3.869159798935338e-08	4.139951e+00	3.162673e-01
4.272909695624062e-08	4.141511e+00	3.151245e-01
4.643792511736248e-08	4.142944e+00	3.151034e-01
5.385558143960619e-08	4.145810e+00	3.150734e-01
6.869089408409361e-08	4.151542e+00	3.150573e-01
8.767265301783247e-08	4.158875e+00	3.150553e-01
1.110757732075725e-07	4.167916e+00	3.150626e-01
1.362917073666251e-07	4.177654e+00	3.150712e-01
1.673634033710091e-07	4.189652e+00	3.150823e-01
2.010229491030691e-07	4.202644e+00	3.150938e-01
2.527435928735711e-07	4.222595e+00	3.151121e-01
2.997668504879505e-07	4.240720e+00	3.151285e-01
3.527667762296067e-07	4.261127e+00	3.151470e-01
4.023152477932190e-07	4.280183e+00	3.151642e-01
4.550823565298839e-07	4.300448e+00	3.151826e-01
5.056186593473974e-07	4.319827e+00	3.152002e-01
5.579920775915830e-07	4.339875e+00	3.152184e-01
6.090419135791443e-07	4.359379e+00	3.152360e-01
6.611633216016705e-07	4.379251e+00	3.152540e-01
7.126254198619622e-07	4.398826e+00	3.152721e-01
7.406094497827831e-07	4.409450e+00	3.152807e-01
7.549162667916032e-07	4.414876e+00	3.152874e-01
7.628690844573308e-07	4.417891e+00	3.152881e-01
7.684914284065640e-07	4.420022e+00	3.152909e-01
7.741230737030124e-07	4.422155e+00	3.152933e-01
7.803332712022860e-07	4.424507e+00	3.152941e-01
7.895085740684094e-07	4.427979e+00	3.152988e-01
8.025100261248477e-07	4.432899e+00	3.153023e-01
8.222616885752784e-07	4.440364e+00	3.153097e-01
8.513640315539192e-07	4.451350e+00	3.153192e-01
8.901682973370254e-07	4.465969e+00	3.153327e-01
9.328889239463893e-07	4.482023e+00	3.153471e-01
9.881384104321983e-07	4.502722e+00	3.153660e-01
1.085794660432198e-06	4.539119e+00	3.153989e-01
1.183450910432198e-06	4.575253e+00	3.154317e-01
1.281107160432198e-06	4.611103e+00	3.154641e-01
1.378763410432198e-06	4.646645e+00	3.154964e-01
1.476419660432198e-06	4.681856e+00	3.155283e-01
1.574075910432199e-06	4.716715e+00	3.155599e-01
1.671732160432199e-06	4.751200e+00	3.155912e-01
1.769388410432199e-06	4.785289e+00	3.156221e-01
1.867044660432199e-06	4.818960e+00	3.156526e-01
1.964700910432199e-06	4.852191e+00	3.156828e-01
2.327424124717913e-06	4.973566e+00	3.157929e-01
2.690147339003627e-06	5.085346e+00	3.158943e-01
3.052870553289342e-06	5.187533e+00	3.159871e-01
3.415593767575056e-06	5.280124e+00	3.160712e-01
3.778316981860770e-06	5.363122e+00	3.161466e-01
4.141040196146485e-06	5.436526e+00	3.162134e-01
4.503763410432198e-06	5.500335e+00	3.162715e-01
4.992044660432199e-06	5.564580e+00	3.163303e-01
5.044764623879415e-06	5.570170e+00	3.162822e-01
5.046597264665473e-06	5.570360e+00	3.165307e-01
5.050262546237591e-06	5.570738e+00	3.234938e-01
5.055165435699703e-06	5.571242e+00	3.621282e-01
5.060670110480380e-06	5.571805e+00	4.818186e-01
5.066108735723879e-06	5.572358e+00	7.671340e-01
5.071126454183529e-06	5.572866e+00	1.373915e+00
5.076427294423771e-06	5.573400e+00	2.667293e+00
5.081723818138760e-06	5.573931e+00	4.800362e+00
5.089485792028418e-06	5.574704e+00	8.676923e+00
5.094335401729804e-06	5.575184e+00	1.087567e+01
5.099241171238072e-06	5.575667e+00	1.242728e+01
5.104497330301869e-06	5.576183e+00	1.341438e+01
5.108276504145018e-06	5.576551e+00	1.380151e+01
5.112354403748633e-06	5.576948e+00	1.401579e+01
5.116967951847970e-06	5.577394e+00	1.414275e+01
5.122294364446307e-06	5.577908e+00	1.421290e+01
5.128494515844426e-06	5.578502e+00	1.424795e+01
5.136388073609809e-06	5.579252e+00	1.426478e+01
5.147159445963281e-06	5.580266e+00	1.427210e+01
5.163474427673873e-06	5.581782e+00	1.427476e+01
5.190288724094920e-06	5.584216e+00	1.427553e+01
5.239430183081314e-06	5.588497e+00	1.427592e+01
5.333865397211562e-06	5.596065e+00	1.427650e+01
5.431521647211562e-06	5.602974e+00	1.427704e+01
5.529177897211563e-06	5.608949e+00	1.427751e+01
5.626834147211563e-06	5.613985e+00	1.427791e+01
5.724490397211563e-06	5.618078e+00	1.427824e+01
5.822146647211563e-06	5.621226e+00	1.427849e+01
5.919802897211564e-06	5.623427e+00	1.427867e+01
6.017459147211564e-06	5.624681e+00	1.427878e+01
6.115115397211564e-06	5.624985e+00	1.427882e+01
6.212771647211564e-06	5.624340e+00	1.427878e+01
6.310427897211565e-06	5.622745e+00	1.427867e+01
6.505740397211565e-06	5.616715e+00	1.427823e+01
6.798709147211566e-06	5.600598e+00	1.427702e+01
6.994021647211566e-06	5.585022e+00	1.427585e+01
7.189334147211565e-06	5.565898e+00	1.427440e+01
7.384646647211566e-06	5.543227e+00	1.427268e+01
7.579959147211566e-06	5.517007e+00	1.427068e+01
7.775271647211565e-06	5.487240e+00	1.426842e+01
7.970584147211566e-06	5.453926e+00	1.426587e+01
8.165896647211565e-06	5.417063e+00	1.426306e+01
8.570472540068706e-06	5.327620e+00	1.425622e+01
8.975048432925845e-06	5.228146e+00	1.424861e+01
9.379624325782986e-06	5.118641e+00	1.424022e+01
9.784200218640127e-06	4.999106e+00	1.423106e+01
1.018877611149727e-05	4.869540e+00	1.422112e+01
1.059335200435441e-05	4.729943e+00	1.421040e+01
1.099792789721155e-05	4.580316e+00	1.419891e+01
1.150016004006869e-05	4.384132e+00	1.418384e+01
1.200239218292583e-05	4.191491e+00	1.416903e+01
1.250462432578297e-05	4.002394e+00	1.415449e+01
1.300685646864011e-05	3.816840e+00	1.414021e+01
1.350908861149725e-05	3.634830e+00	1.412619e+01
1.401132075435439e-05	3.456364e+00	1.411244e+01
1.451355289721153e-05	3.281441e+00	1.409896e+01
1.476466896864010e-05	3.202316e+00	1.409286e+01
1.501578504006867e-05	3.127773e+00	1.408710e+01
1.526690111149724e-05	3.057814e+00	1.408170e+01
1.551801718292581e-05	2.992437e+00	1.407665e+01
1.576913325435438e-05	2.931643e+00	1.407195e+01
1.602024932578295e-05	2.875431e+00	1.406760e+01
1.627136539721152e-05	2.823803e+00	1.406360e+01
1.633455618074300e-05	2.811828e+00	1.406267e+01
1.638865944669234e-05	2.801852e+00	1.406190e+01
1.644427095903722e-05	2.791865e+00	1.406112e+01
1.645647799028722e-05	2.789709e+00	1.406095e+01
1.648089205278722e-05	2.785438e+00	1.406062e+01
1.648699556841222e-05	2.784378e+00	1.406053e+01
1.649920259966222e-05	2.782269e+00	1.405966e+01
1.650225435747472e-05	2.781744e+00	1.404558e+01
1.650693376779534e-05	2.780940e+00	1.388875e+01
1.650945526950609e-05	2.780508e+00	1.341468e+01
1.651119558554220e-05	2.780210e+00	1.226553e+01
1.651263739419542e-05	2.779963e+00	1.002074e+01
1.651414284256114e-05	2.779705e+00	6.325374e+00
1.651502357479382e-05	2.779555e+00	3.902637e+00
1.651564867705660e-05	2.779448e+00	2.520594e+00
1.651650546938769e-05	2.779302e+00	1.357206e+00
1.651710978588944e-05	2.779199e+00	9.131344e-01
1.651756305259685e-05	2.779121e+00	7.428848e-01
1.651813268156633e-05	2.779024e+00	6.093889e-01
1.651878982626124e-05	2.778912e+00	5.080394e-01
1.651973427872002e-05	2.778751e+00	4.173271e-01
1.652073764679502e-05	2.778580e+00	3.617929e-01
1.652203417628408e-05	2.778359e+00	3.284113e-01
1.652353770951621e-05	2.778104e+00	3.163439e-01
1.652522900793694e-05	2.777816e+00	3.146229e-01
1.652704915099689e-05	2.777507e+00	3.145009e-01
1.653068943711680e-05	2.776890e+00	3.142996e-01
1.653797000935663e-05	2.775658e+00	3.140640e-01
1.654707310758538e-05	2.774126e+00	3.139108e-01
1.655832830543227e-05	2.772241e+00	3.138385e-01
1.657214102139237e-05	2.769943e+00	3.138094e-01
1.658856654299253e-05	2.767233e+00	3.138002e-01
1.660637830008830e-05	2.764322e+00	3.137958e-01
1.663873625686813e-05	2.759107e+00	3.137916e-01
1.689791750102484e-05	2.720543e+00	3.137564e-01
1.715709874518155e-05	2.688509e+00	3.137272e-01
1.741627998933827e-05	2.663004e+00	3.137038e-01
1.767546123349498e-05	2.644029e+00	3.136864e-01
1.793464247765169e-05	2.631583e+00	3.136749e-01
1.819382372180840e-05	2.625666e+00	3.136693e-01
1.845300496596512e-05	2.626279e+00	3.136697e-01
1.870412103739369e-05	2.633657e+00	3.136761e-01
1.895523710882226e-05	2.647058e+00	3.136880e-01
1.920635318025083e-05	2.666484e+00	3.137054e-01
1.945746925167940e-05	2.691934e+00	3.137282e-01
1.970858532310797e-05	2.723408e+00	3.137565e-01
1.995970139453654e-05	2.760907e+00	3.137903e-01
2.021081746596511e-05	2.804429e+00	3.138295e-01
2.060144246596510e-05	2.885297e+00	3.139024e-01
2.099206746596510e-05	2.976114e+00	3.139844e-01
2.138269246596510e-05	3.076878e+00	3.140754e-01
2.177331746596510e-05	3.187591e+00	3.141754e-01
2.216394246596509e-05	3.308251e+00	3.142845e-01
2.255456746596509e-05	3.438860e+00	3.144026e-01
2.294519246596509e-05	3.579417e+00	3.145298e-01
2.344742460882223e-05	3.772259e+00	3.147043e-01
2.394965675167937e-05	3.963120e+00	3.148771e-01
2.445188889453651e-05	4.151999e+00	3.150481e-01
2.495412103739365e-05	4.338896e+00	3.152174e-01
2.545635318025079e-05	4.523812e+00	3.153850e-01
2.595858532310793e-05	4.706746e+00	3.155509e-01
2.646081746596507e-05	4.887698e+00	3.157150e-01
2.682354068025078e-05	5.006962e+00	3.158232e-01
2.718626389453649e-05	5.116398e+00	3.159225e-01
2.754898710882220e-05	5.216006e+00	3.160129e-01
2.791171032310792e-05	5.305784e+00	3.160945e-01
2.827443353739363e-05	5.385735e+00	3.161672e-01
2.863715675167934e-05	5.455857e+00	3.162310e-01
2.899987996596505e-05	5.516150e+00	3.162859e-01
2.935717579064334e-05	5.561823e+00	3.163277e-01
2.941266530988475e-05	5.567834e+00	3.173952e-01
2.946797759132150e-05	5.573531e+00	3.218007e-01
2.946864262878003e-05	5.573598e+00	3.234597e-01
2.946997270369708e-05	5.573731e+00	3.320463e-01
2.947263285353120e-05	5.573997e+00	3.645850e-01
2.947795315319944e-05	5.574528e+00	4.977986e-01
2.948307660150656e-05	5.575036e+00	7.848552e-01
2.948811303952145e-05	5.575532e+00	1.419505e+00
2.949333974514526e-05	5.576046e+00	2.730552e+00
2.949866123273176e-05	5.576565e+00	4.903481e+00
2.950670240001700e-05	5.577345e+00	8.905714e+00
2.951164450387426e-05	5.577822e+00	1.108744e+01
2.951665986855008e-05	5.578303e+00	1.258748e+01
2.952194995179708e-05	5.578807e+00	1.349989e+01
2.952588753161536e-05	5.579182e+00	1.385979e+01
2.953012560508977e-05	5.579582e+00	1.405401e+01
2.953471639516038e-05	5.580015e+00	1.416179e+01
2.954026168120596e-05	5.580534e+00	1.422288e+01
2.954670095716951e-05	5.581133e+00	1.425303e+01
2.955520519893165e-05	5.581919e+00	1.426743e+01
2.956684351639782e-05	5.582982e+00	1.427326e+01
2.958493323296770e-05	5.584609e+00	1.427522e+01
2.961401907774889e-05	5.587159e+00	1.427580e+01
2.966988460727961e-05	5.591825e+00	1.427618e+01
2.976754085727961e-05	5.599253e+00	1.427675e+01
2.986519710727960e-05	5.605748e+00	1.427726e+01
2.996285335727960e-05	5.611305e+00	1.427770e+01
3.006050960727960e-05	5.615921e+00	1.427807e+01
3.015816585727960e-05	5.619595e+00	1.427836e+01
3.025582210727960e-05	5.622322e+00	1.427858e+01
3.035347835727960e-05	5.624102e+00	1.427873e+01
3.045113460727960e-05	5.624933e+00	1.427881e+01
3.054879085727960e-05	5.624815e+00	1.427881e+01
3.064644710727960e-05	5.623747e+00	1.427874e+01
3.074410335727961e-05	5.621732e+00	1.427859e+01
3.093941585727961e-05	5.614860e+00	1.427809e+01
3.123238460727962e-05	5.597491e+00	1.427679e+01
3.144164800013677e-05	5.579739e+00	1.427545e+01
3.165091139299391e-05	5.557954e+00	1.427380e+01
3.186017478585107e-05	5.532135e+00	1.427184e+01
3.206943817870822e-05	5.502283e+00	1.426956e+01
3.227870157156537e-05	5.468396e+00	1.426698e+01
3.248796496442251e-05	5.430476e+00	1.426408e+01
3.269722835727966e-05	5.388522e+00	1.426088e+01
3.311575514299396e-05	5.290555e+00	1.425339e+01
3.353428192870826e-05	5.182533e+00	1.424512e+01
3.395280871442255e-05	5.064456e+00	1.423607e+01
3.437133550013685e-05	4.936326e+00	1.422624e+01
3.478986228585115e-05	4.798141e+00	1.421564e+01
3.520838907156545e-05	4.649902e+00	1.420426e+01
3.562691585727975e-05	4.491609e+00	1.419210e+01
3.612914800013690e-05	4.292961e+00	1.417683e+01
3.663138014299406e-05	4.099348e+00	1.416194e+01
3.713361228585122e-05	3.910770e+00	1.414744e+01
3.763584442870838e-05	3.727225e+00	1.413331e+01
3.813807657156553e-05	3.548716e+00	1.411956e+01
3.864030871442269e-05	3.375241e+00	1.410619e+01
3.914254085727985e-05	3.206800e+00	1.409320e+01
3.936575514299414e-05	3.139672e+00	1.408802e+01
3.958896942870843e-05	3.076289e+00	1.408313e+01
3.981218371442272e-05	3.016649e+00	1.407852e+01
4.003539800013702e-05	2.960754e+00	1.407420e+01
4.025861228585131e-05	2.908604e+00	1.407017e+01
4.048182657156560e-05	2.860197e+00	1.406642e+01
4.070504085727989e-05	2.815535e+00	1.406295e+01
4.071724788852989e-05	2.813241e+00	1.406277e+01
4.074166195102989e-05	2.808691e+00	1.406242e+01
4.078633032149807e-05	2.800502e+00	1.406179e+01
4.081579596186931e-05	2.795196e+00	1.406138e+01
4.085317970522653e-05	2.788574e+00	1.406086e+01
4.085844808523352e-05	2.787651e+00	1.406079e+01
4.086898484524750e-05	2.785812e+00	1.406065e+01
4.087161903525099e-05	2.785354e+00	1.406061e+01
4.087688741525798e-05	2.784439e+00	1.405535e+01
4.088626298924154e-05	2.782818e+00	1.389580e+01
4.089012753788501e-05	2.782151e+00	1.321981e+01
4.089247208593284e-05	2.781748e+00	1.141167e+01
4.089423596671496e-05	2.781445e+00	8.230752e+00
4.089600840256233e-05	2.781141e+00	3.802527e+00
4.089679106454180e-05	2.781006e+00	2.102368e+00
4.089740315172472e-05	2.780901e+00	1.302527e+00
4.089795446085370e-05	2.780807e+00	9.277881e-01
4.089844364500080e-05	2.780723e+00	7.415042e-01
4.089898959071496e-05	2.780629e+00	6.114789e-01
4.089962960357929e-05	2.780519e+00	5.114532e-01
4.090052353731895e-05	2.780366e+00	4.233563e-01
4.090155655675150e-05	2.780190e+00	3.641233e-01
4.090281388511190e-05	2.779974e+00	3.297961e-01
4.090431825250077e-05	2.779717e+00	3.167102e-01
4.090601620890433e-05	2.779427e+00	3.146291e-01
4.090782921809040e-05	2.779118e+00	3.145057e-01
4.091120510874486e-05	2.778542e+00	3.143138e-01
4.091795689005377e-05	2.777394e+00	3.140868e-01
4.092716877136233e-05	2.775835e+00	3.139212e-01
4.093802849400159e-05	2.774006e+00	3.138442e-01
4.095179037874174e-05	2.771704e+00	3.138122e-01
4.096793452708602e-05	2.769025e+00	3.138020e-01
4.098520988020127e-05	2.766184e+00	3.137975e-01
4.101562246329928e-05	2.761248e+00	3.137936e-01
4.106979650886680e-05	2.752664e+00	3.137854e-01
4.130696168743823e-05	2.718057e+00	3.137540e-01
4.154412686600967e-05	2.688911e+00	3.137275e-01
4.178129204458110e-05	2.665228e+00	3.137059e-01
4.201845722315254e-05	2.647006e+00	3.136892e-01
4.225562240172398e-05	2.634245e+00	3.136774e-01
4.249278758029541e-05	2.626947e+00	3.136706e-01
4.272995275886685e-05	2.625110e+00	3.136687e-01
4.298106883029543e-05	2.629632e+00	3.136725e-01
4.323218490172401e-05	2.640224e+00	3.136819e-01
4.348330097315259e-05	2.656886e+00	3.136968e-01
4.373441704458116e-05	2.679618e+00	3.137172e-01
4.398553311600974e-05	2.708419e+00	3.137430e-01
4.423664918743832e-05	2.743290e+00	3.137744e-01
4.448776525886690e-05	2.784231e+00	3.138113e-01
4.486443936600976e-05	2.858042e+00	3.138778e-01
4.524111347315264e-05	2.941540e+00	3.139532e-01
4.561778758029550e-05	3.034724e+00	3.140373e-01
4.599446168743837e-05	3.137595e+00	3.141303e-01
4.637113579458124e-05	3.250153e+00	3.142320e-01
4.674780990172411e-05	3.372397e+00	3.143425e-01
4.712448400886697e-05	3.504328e+00	3.144619e-01
4.761276525886699e-05	3.687908e+00	3.146280e-01
4.810104650886700e-05	3.871170e+00	3.147938e-01
4.858932775886702e-05	4.054114e+00	3.149595e-01
4.907760900886703e-05	4.236741e+00	3.151249e-01
4.956589025886704e-05	4.419049e+00	3.152901e-01
5.005417150886706e-05	4.601040e+00	3.154550e-01
5.054245275886707e-05	4.782712e+00	3.156197e-01
5.091912686600994e-05	4.912716e+00	3.157377e-01
5.129580097315281e-05	5.032762e+00	3.158466e-01
5.167247508029568e-05	5.142850e+00	3.159465e-01
5.204914918743854e-05	5.242981e+00	3.160374e-01
5.242582329458141e-05	5.333153e+00	3.161194e-01
5.280249740172428e-05	5.413368e+00	3.161923e-01
5.317917150886715e-05	5.483626e+00	3.162562e-01
5.374627371285628e-05	5.561696e+00	3.163276e-01
5.380510131622108e-05	5.568065e+00	3.274563e-01
5.386504924887017e-05	5.574214e+00	3.654826e-01
5.386574760786608e-05	5.574284e+00	3.711292e-01
5.386714432585790e-05	5.574423e+00	3.969911e-01
5.386993776184154e-05	5.574700e+00	4.852210e-01
5.387552463380882e-05	5.575253e+00	8.315622e-01
5.388061927378610e-05	5.575755e+00	1.508733e+00
5.388566756896389e-05	5.576250e+00	2.841599e+00
5.389115212811961e-05	5.576784e+00	5.144595e+00
5.389807312706588e-05	5.577454e+00	8.645129e+00
5.390283084009478e-05	5.577912e+00	1.080466e+01
5.390799985312017e-05	5.578408e+00	1.243304e+01
5.391340743744512e-05	5.578923e+00	1.344258e+01
5.391710128468406e-05	5.579273e+00	1.381364e+01
5.392114532447697e-05	5.579656e+00	1.402065e+01
5.392575865609375e-05	5.580090e+00	1.414499e+01
5.393115056307503e-05	5.580594e+00	1.421452e+01
5.393737770302121e-05	5.581173e+00	1.424887e+01
5.394534389964638e-05	5.581909e+00	1.426532e+01
5.395619359502337e-05	5.582901e+00	1.427242e+01
5.397276635915652e-05	5.584394e+00	1.427500e+01
5.399998442980561e-05	5.586789e+00	1.427574e+01
5.404995107477109e-05	5.590998e+00	1.427611e+01
5.414681280359013e-05	5.598465e+00	1.427669e+01
5.424446905359014e-05	5.605064e+00	1.427721e+01
5.434212530359014e-05	5.610727e+00	1.427765e+01
5.443978155359014e-05	5.615450e+00	1.427803e+01
5.453743780359014e-05	5.619229e+00	1.427833e+01
5.463509405359015e-05	5.622063e+00	1.427856e+01
5.473275030359015e-05	5.623950e+00	1.427872e+01
5.483040655359015e-05	5.624887e+00	1.427880e+01
5.492806280359015e-05	5.624876e+00	1.427881e+01
5.502571905359016e-05	5.623915e+00	1.427875e+01
5.512337530359016e-05	5.622005e+00	1.427861e+01
5.531868780359017e-05	5.615346e+00	1.427813e+01
5.561165655359017e-05	5.598293e+00	1.427685e+01
5.582091994644733e-05	5.580766e+00	1.427553e+01
5.603018333930447e-05	5.559201e+00	1.427389e+01
5.623944673216162e-05	5.533598e+00	1.427195e+01
5.644871012501877e-05	5.503956e+00	1.426969e+01
5.665797351787592e-05	5.470276e+00	1.426712e+01
5.686723691073307e-05	5.432558e+00	1.426424e+01
5.707650030359022e-05	5.390802e+00	1.426105e+01
5.749502708930451e-05	5.293214e+00	1.425359e+01
5.791355387501881e-05	5.185532e+00	1.424535e+01
5.833208066073311e-05	5.067757e+00	1.423632e+01
5.875060744644741e-05	4.939888e+00	1.422651e+01
5.916913423216170e-05	4.801925e+00	1.421593e+01
5.958766101787601e-05	4.653869e+00	1.420456e+01
6.000618780359030e-05	4.495718e+00	1.419242e+01
6.050841994644746e-05	4.297168e+00	1.417716e+01
6.101065208930461e-05	4.103583e+00	1.416227e+01
6.151288423216178e-05	3.914965e+00	1.414776e+01
6.201511637501892e-05	3.731314e+00	1.413362e+01
6.251734851787608e-05	3.552628e+00	1.411986e+01
6.301958066073324e-05	3.378909e+00	1.410647e+01
6.352181280359040e-05	3.210156e+00	1.409346e+01
6.374677095091183e-05	3.142353e+00	1.408823e+01
6.397172909823327e-05	3.078348e+00	1.408329e+01
6.419668724555470e-05	3.018141e+00	1.407864e+01
6.442164539287614e-05	2.961734e+00	1.407428e+01
6.464660354019757e-05	2.909125e+00	1.407021e+01
6.487156168751902e-05	2.860314e+00	1.406643e+01
6.509651983484044e-05	2.815302e+00	1.406293e+01
