time	V(v_osc2)	V(n007)
0.000000000000000e+00	0.000000e+00	0.000000e+00
9.999999717180685e-10	3.777160e+00	-6.397288e+00
1.124999968182827e-09	4.085893e+00	-6.695060e+00
2.124999968182827e-09	5.383490e+00	-5.433591e+00
2.249999968182827e-09	5.533189e+00	-5.200458e+00
3.249999968182827e-09	6.577785e+00	-3.273534e+00
4.249999968182827e-09	7.470539e+00	-2.579627e+00
5.249999968182827e-09	8.218008e+00	-2.578789e+00
5.845079501871187e-09	8.619521e+00	-2.577401e+00
5.926046655053889e-09	8.669860e+00	-2.577283e+00
6.087980961419294e-09	8.762708e+00	-2.577345e+00
6.411849574150103e-09	8.933900e+00	-2.577512e+00
6.991853031738807e-09	9.190395e+00	-2.577962e+00
8.151859946916216e-09	9.507306e+00	-2.579435e+00
1.047187377727103e-08	9.412531e+00	-2.584260e+00
1.397006293293928e-08	7.715663e+00	-2.595262e+00
1.764043740774959e-08	4.549835e+00	-2.610600e+00
1.934596195856667e-08	2.955923e+00	-2.619131e+00
2.063821623170474e-08	2.049015e+00	-2.626323e+00
2.227340055252755e-08	1.332366e+00	-2.635965e+00
2.339569421493741e-08	1.024175e+00	-2.642917e+00
2.474750368365241e-08	7.909085e-01	-2.651695e+00
2.618911607120670e-08	6.259423e-01	-2.661485e+00
2.807664552041239e-08	4.896695e-01	-2.674918e+00
3.008214682852124e-08	4.023197e-01	-2.689899e+00
3.252662276881404e-08	3.442967e-01	-2.709090e+00
3.520819038822332e-08	3.161204e-01	-2.731236e+00
3.875276066778606e-08	3.065735e-01	-2.762015e+00
4.245262651163627e-08	3.056085e-01	-2.795670e+00
4.607066480639613e-08	3.054988e-01	-2.829978e+00
4.954341495232542e-08	3.054038e-01	-2.864073e+00
5.307520179213553e-08	3.053149e-01	-2.899767e+00
5.661577582207869e-08	3.052290e-01	-2.936439e+00
6.027834367088257e-08	3.051451e-01	-2.975229e+00
6.487649643878546e-08	3.050383e-01	-3.024939e+00
7.008211967816114e-08	3.049216e-01	-3.082341e+00
7.675898090704814e-08	3.047691e-01	-3.157388e+00
8.479505540739858e-08	3.045864e-01	-3.249319e+00
9.479505540739857e-08	3.043551e-01	-3.365469e+00
1.047950554073986e-07	3.041218e-01	-3.483016e+00
1.147950554073986e-07	3.038861e-01	-3.601617e+00
1.247950554073986e-07	3.036488e-01	-3.720956e+00
1.347950554073986e-07	3.034102e-01	-3.840826e+00
1.447950554073986e-07	3.031708e-01	-3.961085e+00
1.547950554073986e-07	3.029304e-01	-4.081652e+00
1.675299689192495e-07	3.026245e-01	-4.235527e+00
1.823741218392776e-07	3.022664e-01	-4.415229e+00
1.981418210574850e-07	3.018859e-01	-4.606444e+00
2.144301408788416e-07	3.014923e-01	-4.804270e+00
2.278010920282510e-07	3.011687e-01	-4.966881e+00
2.431136134711179e-07	3.007978e-01	-5.153328e+00
2.573436776950528e-07	3.004530e-01	-5.326791e+00
2.739359148934093e-07	3.000505e-01	-5.529280e+00
2.901489297613531e-07	2.996570e-01	-5.727369e+00
3.084027336255800e-07	2.992135e-01	-5.950657e+00
3.266905890947054e-07	2.987690e-01	-6.174640e+00
3.481767440622859e-07	2.982463e-01	-6.438109e+00
3.630259691151079e-07	2.978846e-01	-6.620395e+00
3.768091395650602e-07	2.975487e-01	-6.789772e+00
3.928340476860266e-07	2.971582e-01	-6.986887e+00
4.098727270226214e-07	2.967425e-01	-7.196684e+00
4.288205019864248e-07	2.962801e-01	-7.430249e+00
4.500368505957879e-07	2.957617e-01	-7.692109e+00
4.766403912465390e-07	2.951115e-01	-8.020973e+00
5.149022523528048e-07	2.941748e-01	-8.494849e+00
5.577640725984378e-07	2.931244e-01	-9.026896e+00
6.060044602562948e-07	2.919403e-01	-9.627243e+00
6.559208932664714e-07	2.907129e-01	-1.025041e+01
7.396365096343255e-07	2.886499e-01	-1.129936e+01
8.201927008560441e-07	2.866967e-01	-1.229315e+01
9.211204315434594e-07	2.844613e-01	-1.343517e+01
9.359868880519541e-07	2.842647e-01	-1.352272e+01
9.657198010689437e-07	2.841583e-01	-1.354958e+01
1.025185627102923e-06	2.841197e-01	-1.357384e+01
1.097146671249783e-06	2.841187e-01	-1.358933e+01
1.188387518954465e-06	2.841372e-01	-1.359879e+01
1.370869214363829e-06	2.841989e-01	-1.360535e+01
1.373440840779726e-06	2.842001e-01	-1.360537e+01
1.378584093611519e-06	2.842028e-01	-1.360537e+01
1.388870599275107e-06	2.842075e-01	-1.360537e+01
1.409443610602282e-06	2.842163e-01	-1.360538e+01
1.450589633256632e-06	2.842336e-01	-1.360538e+01
1.532881678565333e-06	2.842678e-01	-1.360539e+01
1.697465769182734e-06	2.843358e-01	-1.360540e+01
2.026633950417535e-06	2.844699e-01	-1.360541e+01
2.674286480488348e-06	2.847280e-01	-1.360542e+01
3.517441214885157e-06	2.850555e-01	-1.360542e+01
3.952368834318284e-06	2.852204e-01	-1.360542e+01
4.166298016495567e-06	2.852999e-01	-1.360542e+01
4.373709188506499e-06	2.853762e-01	-1.360542e+01
4.521006128142262e-06	2.854298e-01	-1.360542e+01
4.694569803820637e-06	2.854925e-01	-1.360542e+01
4.988871075329516e-06	2.855975e-01	-1.360542e+01
5.460313906054435e-06	2.857631e-01	-1.360543e+01
5.887266934485364e-06	2.859100e-01	-1.360543e+01
6.497595554803353e-06	2.861149e-01	-1.360543e+01
7.139187002445649e-06	2.863255e-01	-1.360543e+01
7.494267206113610e-06	2.864396e-01	-1.360543e+01
7.737165941386914e-06	2.865164e-01	-1.360543e+01
7.859496798900075e-06	2.865548e-01	-1.360543e+01
7.929642019607521e-06	2.865766e-01	-1.360543e+01
7.956351227243210e-06	2.865849e-01	-1.360543e+01
8.060618364856736e-06	2.866172e-01	-1.360543e+01
8.147940105414834e-06	2.866442e-01	-1.360543e+01
8.321072187889230e-06	2.866971e-01	-1.360543e+01
8.605194899023945e-06	2.867833e-01	-1.360543e+01
8.902098998029193e-06	2.868719e-01	-1.360543e+01
9.495907196039688e-06	2.870452e-01	-1.360543e+01
1.034433860298136e-05	2.872854e-01	-1.360543e+01
1.132257112171547e-05	2.875519e-01	-1.360543e+01
1.225781949415220e-05	2.877957e-01	-1.360543e+01
1.343578364548817e-05	2.880889e-01	-1.360543e+01
1.440335033198137e-05	2.883200e-01	-1.360543e+01
1.489375171723310e-05	2.884331e-01	-1.360543e+01
1.537441841404849e-05	2.885412e-01	-1.360543e+01
1.558719040007273e-05	2.885883e-01	-1.360543e+01
1.584212396015956e-05	2.886440e-01	-1.360543e+01
1.613724070530989e-05	2.887076e-01	-1.360543e+01
1.636043905543361e-05	2.887552e-01	-1.360543e+01
1.662854051982821e-05	2.888117e-01	-1.360543e+01
1.691462860860065e-05	2.888713e-01	-1.360543e+01
1.717721647686259e-05	2.889254e-01	-1.360543e+01
1.726034281642495e-05	2.889423e-01	-1.360543e+01
1.734346915598730e-05	2.889592e-01	-1.360543e+01
1.742659549554965e-05	2.889761e-01	-1.360543e+01
1.750972183511200e-05	2.889928e-01	-1.360543e+01
1.759284817467435e-05	2.890095e-01	-1.360543e+01
1.767597451423670e-05	2.890261e-01	-1.360543e+01
1.775910085379905e-05	2.890427e-01	-1.360543e+01
1.800738027421597e-05	2.890916e-01	-1.360543e+01
1.850393911504980e-05	2.891885e-01	-1.360543e+01
1.851583249873235e-05	2.891908e-01	-1.360543e+01
1.863476633555786e-05	2.892135e-01	-1.360543e+01
1.875370017238337e-05	2.892362e-01	-1.360543e+01
1.887263400920888e-05	2.892587e-01	-1.360543e+01
1.899156784603439e-05	2.892811e-01	-1.360543e+01
1.911050168285990e-05	2.893035e-01	-1.360543e+01
1.922943551968541e-05	2.893257e-01	-1.360543e+01
1.934836935651092e-05	2.893478e-01	-1.360543e+01
1.944389917339693e-05	2.893655e-01	-1.360543e+01
1.951636514770106e-05	2.893788e-01	-1.360543e+01
1.955239940295492e-05	2.893854e-01	-1.360543e+01
1.957816216333607e-05	2.893901e-01	-1.360543e+01
1.960334223757163e-05	2.893948e-01	-1.360543e+01
1.965370238604275e-05	2.894040e-01	-1.360543e+01
1.969271703038693e-05	2.894111e-01	-1.360543e+01
1.972737559093872e-05	2.894174e-01	-1.360543e+01
1.976117007098946e-05	2.894236e-01	-1.360543e+01
1.978005087582676e-05	2.894270e-01	-1.360543e+01
1.979275218560519e-05	2.894293e-01	-1.360543e+01
1.980075000777346e-05	2.894307e-01	-1.360543e+01
1.980644312615544e-05	2.894318e-01	-1.360543e+01
1.981249271681051e-05	2.894329e-01	-1.360543e+01
1.981830776916989e-05	2.894339e-01	-1.360543e+01
1.982299063694891e-05	2.894348e-01	-1.360543e+01
1.982718885196759e-05	2.894355e-01	-1.360543e+01
1.983272394950980e-05	2.894365e-01	-1.360543e+01
1.983869703715814e-05	2.894376e-01	-1.360543e+01
1.984158256378454e-05	2.894381e-01	-1.360543e+01
1.984425537835206e-05	2.894386e-01	-1.360543e+01
1.984770035388802e-05	2.894393e-01	-1.360543e+01
1.985098067319543e-05	2.894398e-01	-1.360543e+01
1.985419943798702e-05	2.894404e-01	-1.360543e+01
1.985712932418352e-05	2.894410e-01	-1.360543e+01
1.986012023287935e-05	2.894415e-01	-1.360543e+01
1.986305349244373e-05	2.894420e-01	-1.360543e+01
1.986605928165968e-05	2.894426e-01	-1.360543e+01
1.986888881355509e-05	2.894431e-01	-1.360543e+01
1.987195429794649e-05	2.894436e-01	-1.360543e+01
1.987565137051569e-05	2.894443e-01	-1.360543e+01
1.988006386302131e-05	2.894451e-01	-1.360543e+01
1.988549459978653e-05	2.894461e-01	-1.360543e+01
1.989225325269049e-05	2.894473e-01	-1.360543e+01
1.990127220567634e-05	2.894489e-01	-1.360543e+01
1.991404838548610e-05	2.894512e-01	-1.360543e+01
1.993455344253131e-05	2.894549e-01	-1.360543e+01
1.997305580842220e-05	2.894619e-01	-1.360543e+01
2.005006054020399e-05	2.894757e-01	-1.360543e+01
2.020407000376755e-05	2.895032e-01	-1.360543e+01
2.051208893089467e-05	2.895576e-01	-1.360543e+01
2.067763852299274e-05	2.895866e-01	-1.360543e+01
2.077244115688903e-05	2.896031e-01	-1.360543e+01
2.082717505124367e-05	2.896127e-01	-1.360543e+01
2.093341659373637e-05	2.896310e-01	-1.360543e+01
2.100330783099706e-05	2.896430e-01	-1.360543e+01
2.114309030551842e-05	2.896669e-01	-1.360543e+01
2.142265525456116e-05	2.897141e-01	-1.360543e+01
2.198178515264662e-05	2.898065e-01	-1.360543e+01
2.282889288671012e-05	2.899424e-01	-1.360543e+01
2.383845028769087e-05	2.900977e-01	-1.360543e+01
2.515245606861629e-05	2.902896e-01	-1.360543e+01
2.654897319080270e-05	2.904834e-01	-1.360543e+01
2.737563544718124e-05	2.905923e-01	-1.360543e+01
2.834550434238604e-05	2.907146e-01	-1.360543e+01
2.897050921659928e-05	2.907908e-01	-1.360543e+01
2.958647252627543e-05	2.908635e-01	-1.360543e+01
3.005789310405581e-05	2.909180e-01	-1.360543e+01
3.040845604922839e-05	2.909577e-01	-1.360543e+01
3.049609678552154e-05	2.909675e-01	-1.360543e+01
3.067137825810783e-05	2.909870e-01	-1.360543e+01
3.074353754877540e-05	2.909950e-01	-1.360543e+01
3.080972412438984e-05	2.910023e-01	-1.360543e+01
3.084081007394927e-05	2.910057e-01	-1.360543e+01
3.093205515545621e-05	2.910157e-01	-1.360543e+01
3.096989207826471e-05	2.910199e-01	-1.360543e+01
3.102566532236788e-05	2.910259e-01	-1.360543e+01
3.108628924889167e-05	2.910325e-01	-1.360543e+01
3.120753710193925e-05	2.910456e-01	-1.360543e+01
3.145003280803443e-05	2.910716e-01	-1.360543e+01
3.193502422022476e-05	2.911227e-01	-1.360543e+01
3.243577970462396e-05	2.911744e-01	-1.360543e+01
3.296145846750059e-05	2.912274e-01	-1.360543e+01
3.361710050931635e-05	2.912917e-01	-1.360543e+01
3.437421684485419e-05	2.913642e-01	-1.360543e+01
3.448285314547033e-05	2.913744e-01	-1.360543e+01
3.470012574670262e-05	2.913946e-01	-1.360543e+01
3.475444389701070e-05	2.913996e-01	-1.360543e+01
3.508035279885914e-05	2.914292e-01	-1.360543e+01
3.551489800132373e-05	2.914679e-01	-1.360543e+01
3.638398840625292e-05	2.915427e-01	-1.360543e+01
3.798197017634811e-05	2.916735e-01	-1.360543e+01
3.952260872904294e-05	2.917921e-01	-1.360543e+01
4.091387662304624e-05	2.918923e-01	-1.360543e+01
4.230710237444445e-05	2.919867e-01	-1.360543e+01
4.325304686590404e-05	2.920474e-01	-1.360543e+01
4.430973202067879e-05	2.921118e-01	-1.360543e+01
4.536724245547003e-05	2.921732e-01	-1.360543e+01
4.673716062470142e-05	2.922482e-01	-1.360543e+01
4.839085268742418e-05	2.923330e-01	-1.360543e+01
5.009443217351521e-05	2.924143e-01	-1.360543e+01
5.171679723802454e-05	2.924861e-01	-1.360543e+01
5.348511826450865e-05	2.925584e-01	-1.360544e+01
5.526120715145783e-05	2.926255e-01	-1.360544e+01
5.701147052285929e-05	2.926865e-01	-1.360544e+01
5.894188631223667e-05	2.927483e-01	-1.360544e+01
6.089169567016694e-05	2.928057e-01	-1.360544e+01
6.270020219937760e-05	2.928545e-01	-1.360544e+01
6.462137035902037e-05	2.929022e-01	-1.360544e+01
6.639326809404081e-05	2.929425e-01	-1.360544e+01
6.838780198354180e-05	2.929842e-01	-1.360544e+01
7.021968791950303e-05	2.930194e-01	-1.360544e+01
7.213998954186205e-05	2.930532e-01	-1.360544e+01
7.409483027611175e-05	2.930847e-01	-1.360544e+01
7.611043044120994e-05	2.931145e-01	-1.360544e+01
7.783798826635582e-05	2.931379e-01	-1.360544e+01
7.960702772126200e-05	2.931600e-01	-1.360544e+01
8.159793863308120e-05	2.931828e-01	-1.360544e+01
8.352130215946518e-05	2.932030e-01	-1.360544e+01
8.543290336448953e-05	2.932214e-01	-1.360544e+01
8.745249235084608e-05	2.932391e-01	-1.360544e+01
8.961549428644588e-05	2.932565e-01	-1.360544e+01
9.162550454446678e-05	2.932712e-01	-1.360544e+01
9.348176364343918e-05	2.932836e-01	-1.360544e+01
9.548642346334005e-05	2.932957e-01	-1.360544e+01
9.774240399341290e-05	2.933083e-01	-1.360544e+01
9.972593198423779e-05	2.933183e-01	-1.360544e+01
1.015165960681520e-04	2.933266e-01	-1.360544e+01
1.034192246716284e-04	2.933347e-01	-1.360544e+01
1.050287877061497e-04	2.933410e-01	-1.360544e+01
1.068111455092994e-04	2.933474e-01	-1.360544e+01
1.089461347908657e-04	2.933545e-01	-1.360544e+01
1.109841440148482e-04	2.933607e-01	-1.360544e+01
1.136861071467896e-04	2.933680e-01	-1.360544e+01
1.159571035425528e-04	2.933735e-01	-1.360544e+01
1.185993737842974e-04	2.933792e-01	-1.360544e+01
1.211408203683118e-04	2.933841e-01	-1.360544e+01
1.235040340189571e-04	2.933882e-01	-1.360544e+01
1.272928213244219e-04	2.933938e-01	-1.360544e+01
1.302879471239358e-04	2.933977e-01	-1.360544e+01
1.332565802755629e-04	2.934011e-01	-1.360544e+01
1.363378701760350e-04	2.934041e-01	-1.360544e+01
1.395812115460561e-04	2.934068e-01	-1.360544e+01
1.448807933313065e-04	2.934104e-01	-1.360544e+01
1.504036330894805e-04	2.934135e-01	-1.360544e+01
1.558019241911538e-04	2.934157e-01	-1.360544e+01
1.659213017607062e-04	2.934186e-01	-1.360544e+01
1.805112303937712e-04	2.934213e-01	-1.360544e+01
1.951958709045313e-04	2.934226e-01	-1.360544e+01
2.245651519260517e-04	2.934239e-01	-1.360544e+01
2.311203277073017e-04	2.934240e-01	-1.360544e+01
2.442306792698017e-04	2.934240e-01	-1.360544e+01
2.704513823948017e-04	2.934241e-01	-1.360545e+01
2.745110393622720e-04	2.934241e-01	-1.360545e+01
2.826303532972127e-04	2.934242e-01	-1.360545e+01
2.846601817809479e-04	2.934242e-01	-1.360545e+01
2.897347529902858e-04	2.934242e-01	-1.360545e+01
2.917645814740210e-04	2.934242e-01	-1.360545e+01
2.918581148320845e-04	2.934242e-01	-1.360545e+01
2.920451815482115e-04	2.934242e-01	-1.360545e+01
2.921668619077081e-04	2.934242e-01	-1.360545e+01
2.922905423550345e-04	2.934242e-01	-1.360545e+01
2.928552124984981e-04	2.934242e-01	-1.360545e+01
2.934348476025811e-04	2.934242e-01	-1.360545e+01
2.946298943017884e-04	2.934242e-01	-1.360545e+01
2.947014472838709e-04	2.934242e-01	-1.360545e+01
2.948445532480360e-04	2.934242e-01	-1.360545e+01
2.949402630112411e-04	2.934242e-01	-1.360545e+01
2.950327242116264e-04	2.934242e-01	-1.360545e+01
2.950426143597449e-04	2.934242e-01	-1.360545e+01
2.950623946559818e-04	2.934242e-01	-1.360545e+01
2.951019552484558e-04	2.934242e-01	-1.360545e+01
2.951031915169706e-04	2.934242e-01	-1.360545e+01
2.951056640540003e-04	2.934242e-01	-1.360545e+01
2.951106091280595e-04	2.934242e-01	-1.360545e+01
2.951204992761780e-04	2.934242e-01	-1.360545e+01
2.951247122322706e-04	2.934242e-01	-1.360545e+01
2.951272026641027e-04	2.934242e-01	-1.360545e+01
2.951287653972250e-04	2.934242e-01	-1.360545e+01
2.951298396280535e-04	2.934242e-01	-1.360545e+01
2.951307996011221e-04	2.934242e-01	-1.360545e+01
2.951318204768987e-04	2.934242e-01	-1.360545e+01
2.951327887799777e-04	2.934242e-01	-1.360545e+01
2.951338406118986e-04	2.934242e-01	-1.360545e+01
2.951349431682833e-04	2.934242e-01	-1.360545e+01
2.951363022276803e-04	2.934242e-01	-1.360545e+01
2.951371728735082e-04	2.934242e-01	-1.360545e+01
2.951378396184061e-04	2.934242e-01	-1.360545e+01
2.951386000784318e-04	2.934242e-01	-1.360545e+01
2.951394155909705e-04	2.934242e-01	-1.360545e+01
2.951398465834739e-04	2.934242e-01	-1.360545e+01
2.951403412896398e-04	2.934242e-01	-1.360545e+01
2.951409080779779e-04	2.934242e-01	-1.360545e+01
2.951418793232406e-04	2.934242e-01	-1.360545e+01
2.951427895004312e-04	2.934242e-01	-1.360545e+01
2.951440179546615e-04	2.934242e-01	-1.360545e+01
2.951453564038057e-04	2.934242e-01	-1.360545e+01
2.951472984243991e-04	2.934242e-01	-1.360545e+01
2.981170949998430e-04	2.934242e-01	-1.360545e+01
3.010868915752868e-04	2.934242e-01	-1.360545e+01
3.040566881507307e-04	2.934242e-01	-1.360545e+01
3.070264847261745e-04	2.934242e-01	-1.360545e+01
3.099962813016183e-04	2.934242e-01	-1.360545e+01
3.129660778770621e-04	2.934242e-01	-1.360545e+01
3.159358744525060e-04	2.934242e-01	-1.360545e+01
3.346647419552359e-04	2.934242e-01	-1.360545e+01
3.586304947522292e-04	2.934242e-01	-1.360545e+01
3.863114704928896e-04	2.934242e-01	-1.360545e+01
4.234377963449626e-04	2.934242e-01	-1.360545e+01
4.758792025949626e-04	2.934242e-01	-1.360546e+01
5.252370843294110e-04	2.934242e-01	-1.360546e+01
5.744234413646646e-04	2.934242e-01	-1.360546e+01
6.201850658277884e-04	2.934242e-01	-1.360546e+01
6.686481040197813e-04	2.934242e-01	-1.360546e+01
6.746000017352220e-04	2.934242e-01	-1.360546e+01
6.894797460238239e-04	2.934242e-01	-1.360547e+01
6.986103463049715e-04	2.934242e-01	-1.360547e+01
6.986666758136180e-04	2.934242e-01	-1.360547e+01
6.986988999318091e-04	2.934242e-01	-1.360547e+01
6.987158948047554e-04	2.934242e-01	-1.360547e+01
6.987273729128433e-04	2.934242e-01	-1.360547e+01
6.987382929196575e-04	2.934242e-01	-1.360547e+01
6.987465111668808e-04	2.934242e-01	-1.360547e+01
6.987520810031605e-04	2.934242e-01	-1.360547e+01
6.987597362001032e-04	2.934242e-01	-1.360547e+01
6.987663057704303e-04	2.934242e-01	-1.360547e+01
6.987699583008014e-04	2.934242e-01	-1.360547e+01
6.987734787573158e-04	2.934242e-01	-1.360547e+01
6.987778010949918e-04	2.934242e-01	-1.360547e+01
6.987817891303847e-04	2.934242e-01	-1.360547e+01
6.987856253920404e-04	2.934242e-01	-1.360547e+01
6.987891073506010e-04	2.934242e-01	-1.360547e+01
6.987926050916549e-04	2.934242e-01	-1.360547e+01
6.987961209841071e-04	2.934242e-01	-1.360547e+01
6.987992406920058e-04	2.934242e-01	-1.360547e+01
6.988026359690879e-04	2.934242e-01	-1.360547e+01
6.988065308387349e-04	2.934242e-01	-1.360547e+01
6.988113329744059e-04	2.934242e-01	-1.360547e+01
6.988176543173184e-04	2.934242e-01	-1.360547e+01
6.988247308887685e-04	2.934242e-01	-1.360547e+01
6.988346167355381e-04	2.934242e-01	-1.360547e+01
6.988474168239230e-04	2.934242e-01	-1.360547e+01
6.988686282090759e-04	2.934242e-01	-1.360547e+01
6.989060204213033e-04	2.934242e-01	-1.360547e+01
6.989808048457584e-04	2.934242e-01	-1.360547e+01
6.991303736946684e-04	2.934242e-01	-1.360547e+01
6.994222036862841e-04	2.934242e-01	-1.360547e+01
6.999630310395563e-04	2.934242e-01	-1.360547e+01
7.004759007697962e-04	2.934242e-01	-1.360547e+01
7.010478926282878e-04	2.934242e-01	-1.360547e+01
7.017178244049109e-04	2.934242e-01	-1.360547e+01
7.027479925554932e-04	2.934242e-01	-1.360547e+01
7.116723302879728e-04	2.934242e-01	-1.360547e+01
7.214781382586899e-04	2.934242e-01	-1.360547e+01
7.410897542001242e-04	2.934242e-01	-1.360547e+01
7.803129860829929e-04	2.934242e-01	-1.360547e+01
8.327543923329929e-04	2.934241e-01	-1.360547e+01
8.851957985829929e-04	2.934241e-01	-1.360547e+01
9.376372048329929e-04	2.934241e-01	-1.360548e+01
9.900786110829929e-04	2.934241e-01	-1.360548e+01
1.042520017332993e-03	2.934241e-01	-1.360548e+01
1.094961423582993e-03	2.934241e-01	-1.360548e+01
1.147402829832993e-03	2.934241e-01	-1.360548e+01
1.199844236082993e-03	2.934241e-01	-1.360549e+01
1.304727048582993e-03	2.934241e-01	-1.360549e+01
1.424593120011565e-03	2.934241e-01	-1.360550e+01
1.544459191440137e-03	2.934241e-01	-1.360550e+01
1.664325262868708e-03	2.934241e-01	-1.360550e+01
1.784191334297280e-03	2.934241e-01	-1.360551e+01
1.904057405725852e-03	2.934241e-01	-1.360551e+01
2.023923477154423e-03	2.934241e-01	-1.360552e+01
2.143789548582995e-03	2.934241e-01	-1.360552e+01
2.181247695904423e-03	2.934241e-01	-1.360552e+01
2.218705843225852e-03	2.934241e-01	-1.360552e+01
2.256163990547281e-03	2.934241e-01	-1.360552e+01
2.293622137868709e-03	2.934241e-01	-1.360552e+01
2.331080285190138e-03	2.934241e-01	-1.360553e+01
2.368538432511566e-03	2.934241e-01	-1.360553e+01
