time	V(integrateur)	V(osc_1)	V(out)
0.000000000000000e+00	-1.360552e+01	-1.221121e+01	2.934241e-01
1.082953125000098e-05	-1.360548e+01	-1.221114e+01	2.934242e-01
1.334953125000163e-05	-1.360540e+01	-1.221109e+01	2.934243e-01
1.586953125000228e-05	-1.360510e+01	-1.221061e+01	2.934249e-01
1.807339392138028e-05	-1.360436e+01	-1.220929e+01	2.934263e-01
2.024897143629474e-05	-1.360272e+01	-1.220643e+01	2.934294e-01
2.230582592353467e-05	-1.359948e+01	-1.220062e+01	2.934354e-01
2.398542166851154e-05	-1.359498e+01	-1.219061e+01	2.934438e-01
2.423942939525428e-05	-1.359389e+01	-1.218821e+01	2.934459e-01
2.474744484873802e-05	-1.359056e+01	-1.218243e+01	2.934522e-01
2.548412814143246e-05	-1.358305e+01	-1.216911e+01	2.934664e-01
2.603872247783356e-05	-1.357434e+01	-1.214998e+01	2.934831e-01
2.612628567640572e-05	-1.357211e+01	-1.214525e+01	2.934874e-01
2.630141207354830e-05	-1.356532e+01	-1.213330e+01	2.935005e-01
2.648300254926191e-05	-1.355570e+01	-1.211338e+01	2.935190e-01
2.652245899797262e-05	-1.355253e+01	-1.210701e+01	2.935251e-01
2.660137189539578e-05	-1.354313e+01	-1.209037e+01	2.935431e-01
2.666540744372323e-05	-1.353100e+01	-1.206878e+01	2.935662e-01
2.671916928210713e-05	-1.351033e+01	-1.203689e+01	2.936048e-01
2.676511574941677e-05	-1.345353e+01	-1.197627e+01	2.937072e-01
2.680680226154787e-05	-1.330348e+01	-1.182102e+01	2.939818e-01
2.685452158746569e-05	-1.298026e+01	-1.148537e+01	2.945889e-01
2.688867142209769e-05	-1.264970e+01	-1.114106e+01	2.952242e-01
2.692729463948072e-05	-1.219812e+01	-1.067862e+01	2.961059e-01
2.696766078952306e-05	-1.169663e+01	-1.016679e+01	2.970960e-01
2.701476946436257e-05	-1.111453e+01	-9.580905e+00	2.982520e-01
2.706596506422097e-05	-1.049679e+01	-8.967482e+00	2.994773e-01
2.718004931728107e-05	-9.134791e+00	-7.603685e+00	3.021685e-01
2.721375117212786e-05	-8.733197e+00	-7.201159e+00	3.029605e-01
2.724768726861809e-05	-8.329418e+00	-6.796123e+00	3.037562e-01
2.728102945836683e-05	-7.933607e+00	-6.398575e+00	3.045355e-01
2.731437164811557e-05	-7.538186e+00	-6.001050e+00	3.053133e-01
2.734771383786430e-05	-7.143155e+00	-5.603548e+00	3.060896e-01
2.738105602761304e-05	-6.748515e+00	-5.206070e+00	3.068644e-01
2.741439821736177e-05	-6.354264e+00	-4.808614e+00	3.076378e-01
2.744774040711051e-05	-5.960405e+00	-4.411182e+00	3.084096e-01
2.748108259685925e-05	-5.566935e+00	-4.013772e+00	3.091800e-01
2.758451957359832e-05	-4.363279e+00	-2.780572e+00	3.115340e-01
2.771860901612869e-05	-3.469434e+00	-1.181566e+00	3.133501e-01
2.781840019577993e-05	-3.951760e+00	1.137686e-02	3.124481e-01
2.791788943146307e-05	-5.128755e+00	1.200822e+00	3.100797e-01
2.803088008400574e-05	-6.482751e+00	2.551653e+00	3.073331e-01
2.814745142448553e-05	-7.786750e+00	3.945260e+00	3.046812e-01
2.820270938727262e-05	-8.232887e+00	4.605856e+00	3.037491e-01
2.825990843948779e-05	-8.457845e+00	5.289649e+00	3.032358e-01
2.827298919391187e-05	-8.467728e+00	5.446023e+00	3.032031e-01
2.828651890679837e-05	-8.455462e+00	5.607764e+00	3.032209e-01
2.829852942995599e-05	-8.442235e+00	5.751343e+00	3.032424e-01
2.831439417295967e-05	-8.424593e+00	5.940997e+00	3.032733e-01
2.833167726160567e-05	-8.407559e+00	6.147606e+00	3.033040e-01
2.835103111256156e-05	-8.392381e+00	6.378968e+00	3.033316e-01
2.837088391785363e-05	-8.381180e+00	6.616294e+00	3.033512e-01
2.839374939220783e-05	-8.372684e+00	6.889632e+00	3.033645e-01
2.842280427390285e-05	-8.365496e+00	7.236959e+00	3.033734e-01
2.843902573191823e-05	-8.362484e+00	7.430871e+00	3.033759e-01
2.845681727286012e-05	-8.359546e+00	7.643551e+00	3.033777e-01
2.847944000220794e-05	-8.355660e+00	7.913982e+00	3.033800e-01
2.850456888464636e-05	-8.350957e+00	8.214370e+00	3.033833e-01
2.853726452659890e-05	-8.344276e+00	8.605206e+00	3.033887e-01
2.858178198669042e-05	-8.334658e+00	9.137353e+00	3.033972e-01
2.864083281630889e-05	-8.321665e+00	9.843217e+00	3.034091e-01
2.871284465648730e-05	-8.305884e+00	1.070399e+01	3.034235e-01
2.879116024307946e-05	-8.288816e+00	1.164010e+01	3.034390e-01
2.894779141626377e-05	-8.254720e+00	1.335426e+01	3.034699e-01
2.912538608594931e-05	-8.216070e+00	1.342219e+01	3.035048e-01
3.137945470576414e-05	-7.725576e+00	1.347260e+01	3.039487e-01
4.012065647038414e-05	-5.823732e+00	1.347489e+01	3.056696e-01
4.886185823500415e-05	-3.922345e+00	1.347664e+01	3.073901e-01
5.760305999962414e-05	-2.021414e+00	1.347785e+01	3.091103e-01
6.634426176424415e-05	-1.209398e-01	1.347851e+01	3.108300e-01
7.508546352886414e-05	1.779079e+00	1.347862e+01	3.125493e-01
8.382666529348414e-05	3.678641e+00	1.347819e+01	3.142682e-01
9.256786705810413e-05	5.577746e+00	1.347721e+01	3.159866e-01
9.257753855187317e-05	5.579852e+00	1.347721e+01	3.162602e-01
9.258721060314591e-05	5.581982e+00	1.347721e+01	3.180272e-01
9.258813036745576e-05	5.582211e+00	1.347721e+01	3.199105e-01
9.258996989607547e-05	5.582781e+00	1.347721e+01	3.306148e-01
9.259364895331489e-05	5.584398e+00	1.347721e+01	3.783281e-01
9.259953462893190e-05	5.588717e+00	1.347721e+01	5.492224e-01
9.260478870923294e-05	5.596292e+00	1.347721e+01	9.056999e-01
9.260989413940011e-05	5.610660e+00	1.347721e+01	1.635159e+00
9.261414639115395e-05	5.632000e+00	1.347721e+01	2.741966e+00
9.261843160754228e-05	5.664928e+00	1.347721e+01	4.427962e+00
9.262278457323678e-05	5.707231e+00	1.347721e+01	6.495141e+00
9.262908040442823e-05	5.769704e+00	1.347721e+01	9.338094e+00
9.263481354305179e-05	5.814787e+00	1.347721e+01	1.121810e+01
9.264082500477604e-05	5.843660e+00	1.347721e+01	1.234019e+01
9.264531177693124e-05	5.852461e+00	1.347721e+01	1.274464e+01
9.265054008585939e-05	5.851331e+00	1.347721e+01	1.294603e+01
9.265633232034311e-05	5.841271e+00	1.347721e+01	1.304030e+01
9.266410570359616e-05	5.819023e+00	1.347721e+01	1.308362e+01
9.267379632012067e-05	5.784851e+00	1.347721e+01	1.309682e+01
9.268886766533417e-05	5.729563e+00	1.347720e+01	1.309523e+01
9.270678629364967e-05	5.671105e+00	1.347720e+01	1.308730e+01
9.272642483770625e-05	5.622016e+00	1.347720e+01	1.307893e+01
9.274507251702015e-05	5.591539e+00	1.347720e+01	1.307323e+01
9.276500924173571e-05	5.573928e+00	1.347720e+01	1.306964e+01
9.278748938707122e-05	5.565223e+00	1.347720e+01	1.306773e+01
9.280113204301887e-05	5.563658e+00	1.347720e+01	1.306734e+01
9.280959456759580e-05	5.563767e+00	1.347720e+01	1.306736e+01
9.281934718467083e-05	5.564258e+00	1.347720e+01	1.306750e+01
9.282912594453865e-05	5.564797e+00	1.347720e+01	1.306769e+01
9.284023707792181e-05	5.565282e+00	1.347720e+01	1.306793e+01
9.285080173902262e-05	5.565487e+00	1.347720e+01	1.306813e+01
9.286221219772725e-05	5.565343e+00	1.347720e+01	1.306831e+01
9.287455346411282e-05	5.564727e+00	1.347720e+01	1.306845e+01
9.289065841431091e-05	5.563254e+00	1.347720e+01	1.306851e+01
9.291425926610287e-05	5.560108e+00	1.347720e+01	1.306843e+01
9.295407453223034e-05	5.553575e+00	1.347720e+01	1.306805e+01
9.298731343890428e-05	5.547677e+00	1.347720e+01	1.306763e+01
9.302445807259606e-05	5.541075e+00	1.347720e+01	1.306713e+01
9.306444370546160e-05	5.534193e+00	1.347720e+01	1.306662e+01
9.312156116056056e-05	5.524572e+00	1.347720e+01	1.306594e+01
9.321037029050468e-05	5.509672e+00	1.347720e+01	1.306489e+01
9.330811626288155e-05	5.493234e+00	1.347720e+01	1.306374e+01
9.346057375326372e-05	5.467581e+00	1.347720e+01	1.306193e+01
9.376548873402807e-05	5.416319e+00	1.347719e+01	1.305832e+01
9.422030418088610e-05	5.339916e+00	1.347719e+01	1.305294e+01
9.482180869946517e-05	5.238983e+00	1.347718e+01	1.304583e+01
9.552991493900001e-05	5.120335e+00	1.347717e+01	1.303747e+01
9.650972642425565e-05	4.956486e+00	1.347716e+01	1.302593e+01
1.080168743951837e-04	3.056731e+00	1.347705e+01	1.289213e+01
1.080562493951838e-04	3.050302e+00	1.347704e+01	1.289167e+01
1.081349993951840e-04	3.037464e+00	1.347704e+01	1.289077e+01
1.081391902655292e-04	3.036781e+00	1.347704e+01	1.289072e+01
1.081475720062196e-04	3.035414e+00	1.347704e+01	1.289063e+01
1.081643354876021e-04	3.032682e+00	1.347704e+01	1.289043e+01
1.081978624503654e-04	3.027216e+00	1.347704e+01	1.289005e+01
1.081989101679517e-04	3.027046e+00	1.347704e+01	1.289004e+01
1.082010056031243e-04	3.026704e+00	1.347704e+01	1.289001e+01
1.082051964734695e-04	3.026021e+00	1.347704e+01	1.288996e+01
1.082135782141599e-04	3.024655e+00	1.347704e+01	1.288987e+01
1.082303416955425e-04	3.021922e+00	1.347704e+01	1.288964e+01
1.082345325658877e-04	3.021085e+00	1.347704e+01	1.288062e+01
1.082429143065781e-04	3.018872e+00	1.347704e+01	1.283062e+01
1.082435039928224e-04	3.018545e+00	1.347704e+01	1.281594e+01
1.082446833653092e-04	3.016879e+00	1.347704e+01	1.271954e+01
1.082462310663581e-04	3.011066e+00	1.347704e+01	1.235354e+01
1.082477002949944e-04	2.996378e+00	1.347704e+01	1.140727e+01
1.082491478852764e-04	2.965399e+00	1.347704e+01	9.418153e+00
1.082503879387044e-04	2.922514e+00	1.347704e+01	6.728650e+00
1.082515906056583e-04	2.872375e+00	1.347704e+01	3.713958e+00
1.082522573846289e-04	2.847285e+00	1.347704e+01	2.333397e+00
1.082529869362598e-04	2.826929e+00	1.347704e+01	1.392940e+00
1.082536704904852e-04	2.813287e+00	1.347704e+01	9.127986e-01
1.082541647239570e-04	2.805782e+00	1.347704e+01	7.278942e-01
1.082547599804001e-04	2.798219e+00	1.347704e+01	5.937778e-01
1.082553857183477e-04	2.791308e+00	1.347704e+01	5.016745e-01
1.082564132305255e-04	2.781490e+00	1.347704e+01	4.083534e-01
1.082574113576359e-04	2.773362e+00	1.347704e+01	3.565582e-01
1.082587638817235e-04	2.764279e+00	1.347704e+01	3.253834e-01
1.082602738511872e-04	2.756129e+00	1.347704e+01	3.151532e-01
1.082619806763198e-04	2.749017e+00	1.347704e+01	3.139842e-01
1.082638234903947e-04	2.743792e+00	1.347704e+01	3.138508e-01
1.082675091185429e-04	2.739599e+00	1.347704e+01	3.136384e-01
1.082748803748410e-04	2.744922e+00	1.347704e+01	3.134015e-01
1.082843401420085e-04	2.767646e+00	1.347704e+01	3.132748e-01
1.082957495855234e-04	2.807936e+00	1.347704e+01	3.132696e-01
1.083096933486710e-04	2.862099e+00	1.347704e+01	3.133414e-01
1.083269184184738e-04	2.923913e+00	1.347704e+01	3.134546e-01
1.083450124793363e-04	2.975739e+00	1.347704e+01	3.135585e-01
1.083642299243640e-04	3.013827e+00	1.347704e+01	3.136382e-01
1.083836644193790e-04	3.036516e+00	1.347704e+01	3.136860e-01
1.084058581911542e-04	3.049227e+00	1.347704e+01	3.137121e-01
1.084230100233952e-04	3.053175e+00	1.347704e+01	3.137199e-01
1.084328022751581e-04	3.053785e+00	1.347704e+01	3.137188e-01
1.084409404942550e-04	3.053812e+00	1.347704e+01	3.137175e-01
1.084501354733109e-04	3.053720e+00	1.347704e+01	3.137157e-01
1.084594364483930e-04	3.053674e+00	1.347704e+01	3.137133e-01
1.084697578071416e-04	3.053804e+00	1.347704e+01	3.137112e-01
1.084803360214843e-04	3.054228e+00	1.347704e+01	3.137091e-01
1.084923027029963e-04	3.055147e+00	1.347704e+01	3.137084e-01
1.085092162790586e-04	3.057179e+00	1.347704e+01	3.137075e-01
1.085315486001517e-04	3.060896e+00	1.347704e+01	3.137095e-01
1.085659353848734e-04	3.067909e+00	1.347704e+01	3.137147e-01
1.085992042788170e-04	3.075351e+00	1.347704e+01	3.137215e-01
1.086366492009348e-04	3.083873e+00	1.347704e+01	3.137296e-01
1.086799740691365e-04	3.093520e+00	1.347704e+01	3.137387e-01
1.087330055308464e-04	3.105088e+00	1.347704e+01	3.137491e-01
1.090996190032077e-04	3.184697e+00	1.347703e+01	3.138212e-01
1.106424954976353e-04	3.519950e+00	1.347702e+01	3.141199e-01
1.121853719920629e-04	3.855190e+00	1.347700e+01	3.144218e-01
1.137282484864905e-04	4.190416e+00	1.347699e+01	3.147269e-01
1.152711249809181e-04	4.525630e+00	1.347697e+01	3.150353e-01
1.168140014753457e-04	4.860831e+00	1.347696e+01	3.153469e-01
1.183568779697733e-04	5.196019e+00	1.347694e+01	3.156618e-01
1.198997544642009e-04	5.531194e+00	1.347693e+01	3.159799e-01
1.199282033002051e-04	5.537376e+00	1.347693e+01	3.159668e-01
1.199566521362093e-04	5.543557e+00	1.347693e+01	3.159583e-01
1.199851009722135e-04	5.549738e+00	1.347693e+01	3.159543e-01
1.200135498082177e-04	5.555918e+00	1.347693e+01	3.159549e-01
1.200419986442219e-04	5.562098e+00	1.347693e+01	3.159599e-01
1.200704474802261e-04	5.568278e+00	1.347693e+01	3.159695e-01
1.200988963162303e-04	5.574458e+00	1.347693e+01	3.159837e-01
1.201203297778383e-04	5.579871e+00	1.347693e+01	3.579853e-01
1.201330481127114e-04	5.586480e+00	1.347693e+01	5.715582e-01
1.201411751888867e-04	5.597957e+00	1.347693e+01	1.109897e+00
1.201466371830787e-04	5.616096e+00	1.347693e+01	2.040807e+00
1.201513279055523e-04	5.644602e+00	1.347693e+01	3.516939e+00
1.201557712549907e-04	5.683711e+00	1.347693e+01	5.484635e+00
1.201606517079526e-04	5.733700e+00	1.347693e+01	7.864212e+00
1.201656521214369e-04	5.781130e+00	1.347693e+01	9.949966e+00
1.201715901990134e-04	5.821704e+00	1.347693e+01	1.158992e+01
1.201781998062725e-04	5.846104e+00	1.347692e+01	1.256125e+01
1.201829170909396e-04	5.850382e+00	1.347692e+01	1.286427e+01
1.201891831202964e-04	5.843494e+00	1.347692e+01	1.301471e+01
1.201949526418115e-04	5.829616e+00	1.347692e+01	1.306839e+01
1.202046932041387e-04	5.797360e+00	1.347692e+01	1.309316e+01
1.202158775416799e-04	5.756318e+00	1.347692e+01	1.309746e+01
1.202329237730906e-04	5.696410e+00	1.347692e+01	1.309127e+01
1.202523724870806e-04	5.640196e+00	1.347692e+01	1.308242e+01
1.202713709218366e-04	5.601514e+00	1.347692e+01	1.307542e+01
1.202905834884870e-04	5.578234e+00	1.347692e+01	1.307088e+01
1.203111903175895e-04	5.566082e+00	1.347692e+01	1.306830e+01
1.203318857536471e-04	5.561601e+00	1.347692e+01	1.306726e+01
1.203423480028547e-04	5.561272e+00	1.347692e+01	1.306717e+01
1.203513233880554e-04	5.561656e+00	1.347692e+01	1.306728e+01
1.203612769097827e-04	5.562216e+00	1.347692e+01	1.306746e+01
1.203715704108915e-04	5.562718e+00	1.347692e+01	1.306768e+01
1.203827305738814e-04	5.563035e+00	1.347692e+01	1.306790e+01
1.203932271332444e-04	5.563015e+00	1.347692e+01	1.306808e+01
1.204057524757749e-04	5.562551e+00	1.347692e+01	1.306824e+01
1.204190497894123e-04	5.561522e+00	1.347692e+01	1.306833e+01
1.204410502657436e-04	5.558885e+00	1.347692e+01	1.306831e+01
1.204717031267882e-04	5.554164e+00	1.347692e+01	1.306808e+01
1.205026731951418e-04	5.548769e+00	1.347692e+01	1.306772e+01
1.205364826088531e-04	5.542712e+00	1.347692e+01	1.306726e+01
1.205761551488650e-04	5.535764e+00	1.347692e+01	1.306674e+01
1.206213275503198e-04	5.528080e+00	1.347692e+01	1.306619e+01
1.206948065649530e-04	5.515743e+00	1.347692e+01	1.306532e+01
1.207929344721557e-04	5.499259e+00	1.347692e+01	1.306416e+01
1.209036763313177e-04	5.480627e+00	1.347692e+01	1.306285e+01
1.211251600496416e-04	5.443375e+00	1.347692e+01	1.306022e+01
1.214031009018277e-04	5.396662e+00	1.347691e+01	1.305694e+01
1.219589826062014e-04	5.303314e+00	1.347691e+01	1.305036e+01
1.225364727124711e-04	5.206456e+00	1.347690e+01	1.304354e+01
1.234003891465996e-04	5.061788e+00	1.347689e+01	1.303335e+01
1.262500446763942e-04	4.586710e+00	1.347687e+01	1.299989e+01
1.312900446763954e-04	3.753051e+00	1.347682e+01	1.294117e+01
1.341250446763968e-04	3.287430e+00	1.347680e+01	1.290838e+01
1.354637946763982e-04	3.068771e+00	1.347678e+01	1.289298e+01
1.355756925760301e-04	3.050523e+00	1.347678e+01	1.289169e+01
1.356492993378998e-04	3.038522e+00	1.347678e+01	1.289085e+01
1.357251818368682e-04	3.026151e+00	1.347678e+01	1.288997e+01
1.357331190714323e-04	3.024858e+00	1.347678e+01	1.288988e+01
1.357489935405586e-04	3.022270e+00	1.347678e+01	1.288972e+01
1.357494896177189e-04	3.022189e+00	1.347678e+01	1.288972e+01
1.357504817720394e-04	3.022028e+00	1.347678e+01	1.288973e+01
1.357524660806804e-04	3.021699e+00	1.347678e+01	1.288935e+01
1.357564346979624e-04	3.020960e+00	1.347678e+01	1.288333e+01
1.357592557789077e-04	3.019971e+00	1.347678e+01	1.284886e+01
1.357615535108603e-04	3.017299e+00	1.347678e+01	1.269831e+01
1.357633856225240e-04	3.010158e+00	1.347678e+01	1.224935e+01
1.357648540747623e-04	2.994417e+00	1.347678e+01	1.123598e+01
1.357661770800666e-04	2.964479e+00	1.347678e+01	9.316156e+00
1.357674198445014e-04	2.920339e+00	1.347678e+01	6.551845e+00
1.357685811615942e-04	2.871761e+00	1.347678e+01	3.638972e+00
1.357692364307560e-04	2.847337e+00	1.347678e+01	2.302991e+00
1.357699936813273e-04	2.826522e+00	1.347678e+01	1.351031e+00
1.357706475483226e-04	2.813625e+00	1.347678e+01	9.030056e-01
1.357711387467569e-04	2.806234e+00	1.347678e+01	7.239832e-01
1.357717284297590e-04	2.798766e+00	1.347678e+01	5.924963e-01
1.357723779623725e-04	2.791609e+00	1.347678e+01	4.978918e-01
1.357733807329040e-04	2.782050e+00	1.347678e+01	4.077059e-01
1.357743980514199e-04	2.773788e+00	1.347678e+01	3.556594e-01
1.357757393597760e-04	2.764803e+00	1.347678e+01	3.251601e-01
1.357772752860632e-04	2.756554e+00	1.347678e+01	3.151051e-01
1.357790095658142e-04	2.749379e+00	1.347678e+01	3.139792e-01
1.357808606483654e-04	2.744196e+00	1.347678e+01	3.138468e-01
1.357845628134676e-04	2.740120e+00	1.347678e+01	3.136342e-01
1.357919671436721e-04	2.745692e+00	1.347678e+01	3.133993e-01
1.358014482398667e-04	2.768668e+00	1.347678e+01	3.132744e-01
1.358129020749433e-04	2.809237e+00	1.347678e+01	3.132707e-01
1.358268922376227e-04	2.863573e+00	1.347678e+01	3.133433e-01
1.358442230759323e-04	2.925585e+00	1.347678e+01	3.134573e-01
1.358624236449339e-04	2.977416e+00	1.347678e+01	3.135613e-01
1.358816059496143e-04	3.015082e+00	1.347678e+01	3.136401e-01
1.359010764806819e-04	3.037505e+00	1.347678e+01	3.136874e-01
1.359233210109119e-04	3.050035e+00	1.347678e+01	3.137130e-01
1.359401042753273e-04	3.053821e+00	1.347678e+01	3.137206e-01
1.359498206934054e-04	3.054407e+00	1.347678e+01	3.137194e-01
1.359580079702809e-04	3.054432e+00	1.347678e+01	3.137180e-01
1.359671829538646e-04	3.054340e+00	1.347678e+01	3.137162e-01
1.359765154238420e-04	3.054294e+00	1.347678e+01	3.137138e-01
1.359868144260937e-04	3.054426e+00	1.347678e+01	3.137118e-01
1.359974239940609e-04	3.054855e+00	1.347678e+01	3.137097e-01
1.360093773096691e-04	3.055777e+00	1.347678e+01	3.137090e-01
1.360263716046837e-04	3.057826e+00	1.347678e+01	3.137080e-01
1.360487318521758e-04	3.061556e+00	1.347678e+01	3.137101e-01
1.360833279982106e-04	3.068622e+00	1.347678e+01	3.137154e-01
1.361164687020255e-04	3.076038e+00	1.347678e+01	3.137222e-01
1.361539041256441e-04	3.084557e+00	1.347678e+01	3.137302e-01
1.361972194778831e-04	3.094201e+00	1.347678e+01	3.137394e-01
1.362504722411204e-04	3.105815e+00	1.347678e+01	3.137498e-01
1.366187109327881e-04	3.185778e+00	1.347677e+01	3.138222e-01
1.382158486468686e-04	3.532822e+00	1.347676e+01	3.141362e-01
1.398880197879000e-04	3.896153e+00	1.347675e+01	3.144650e-01
1.424080197879006e-04	4.443674e+00	1.347672e+01	3.149604e-01
1.449280197879012e-04	4.991159e+00	1.347670e+01	3.154559e-01
1.474529416629015e-04	5.539682e+00	1.347668e+01	3.159884e-01
1.476258114809486e-04	5.577238e+00	1.347668e+01	3.159862e-01
1.476455610760243e-04	5.582089e+00	1.347668e+01	3.469933e-01
1.476585584129879e-04	5.588055e+00	1.347668e+01	5.218496e-01
1.476667024887593e-04	5.597930e+00	1.347668e+01	9.723651e-01
1.476722895332062e-04	5.613998e+00	1.347668e+01	1.790853e+00
1.476769234057592e-04	5.639150e+00	1.347668e+01	3.096097e+00
1.476813170267731e-04	5.675251e+00	1.347668e+01	4.931476e+00
1.476859297179448e-04	5.721662e+00	1.347668e+01	7.178572e+00
1.476910103083307e-04	5.771689e+00	1.347668e+01	9.426850e+00
1.476970908673367e-04	5.817980e+00	1.347668e+01	1.133256e+01
1.477030108423486e-04	5.845150e+00	1.347668e+01	1.239086e+01
1.477073840638107e-04	5.852890e+00	1.347668e+01	1.276190e+01
1.477126763374768e-04	5.851086e+00	1.347668e+01	1.295424e+01
1.477185267535468e-04	5.840428e+00	1.347668e+01	1.304410e+01
1.477264913962578e-04	5.817166e+00	1.347668e+01	1.308518e+01
1.477363324279557e-04	5.782230e+00	1.347668e+01	1.309709e+01
1.477519175936710e-04	5.725306e+00	1.347668e+01	1.309474e+01
1.477701345670452e-04	5.666794e+00	1.347668e+01	1.308659e+01
1.477896748626698e-04	5.619303e+00	1.347668e+01	1.307840e+01
1.478083693356811e-04	5.589990e+00	1.347668e+01	1.307288e+01
1.478283647849878e-04	5.573349e+00	1.347668e+01	1.306948e+01
1.478514361303550e-04	5.565172e+00	1.347668e+01	1.306766e+01
1.478642968728988e-04	5.563919e+00	1.347668e+01	1.306735e+01
1.478722655874429e-04	5.564089e+00	1.347668e+01	1.306739e+01
1.478824407719521e-04	5.564628e+00	1.347668e+01	1.306754e+01
