time	V(in-)	V(out)	V(in+)
0.000000000000000e+00	0.000000e+00	0.000000e+00	0.000000e+00
4.882812487672084e-10	-2.199857e-13	1.108098e-07	-2.264816e-06
9.765624975344167e-10	-4.399716e-13	2.240618e-07	-2.954778e-06
2.550594473939885e-08	-1.149123e-11	3.333868e-06	-3.069363e-07
5.003532698126329e-08	-2.254248e-11	1.172569e-05	6.838277e-06
7.456470922312773e-08	-3.359371e-11	2.539954e-05	1.848086e-05
9.909409146499217e-08	-4.464493e-11	4.435541e-05	3.462082e-05
1.236234737068566e-07	-5.569613e-11	6.859330e-05	5.525815e-05
1.481528559487210e-07	-6.674732e-11	9.811321e-05	8.039285e-05
1.726822381905854e-07	-7.779849e-11	1.329151e-04	1.100249e-04
2.184324318149058e-07	-9.841007e-11	2.608415e-04	2.189477e-04
2.621875001882060e-07	-1.181225e-10	4.922919e-04	4.160159e-04
3.063333205824187e-07	-1.380104e-10	9.552262e-04	8.101810e-04
3.586838999441924e-07	-1.615932e-10	2.043486e-03	1.736779e-03
4.072676523864303e-07	-1.834763e-10	4.141651e-03	3.523260e-03
4.602157068292117e-07	-2.073187e-10	8.872690e-03	7.551498e-03
5.103686979679968e-07	-2.298893e-10	1.829868e-02	1.557725e-02
5.629447838772540e-07	-2.535169e-10	3.894372e-02	3.315546e-02
6.138068674980611e-07	-2.761049e-10	8.093424e-02	6.890824e-02
6.660726840910408e-07	-1.911063e-10	1.707584e-01	1.453890e-01
7.175439989313597e-07	4.775579e-09	3.249588e-01	2.766828e-01
7.400385715471411e-07	6.686747e-08	4.268392e-01	3.634287e-01
7.536551184375726e-07	3.098943e-07	5.069426e-01	4.316327e-01
7.610262591340963e-07	8.036441e-07	5.563632e-01	4.737118e-01
7.668616591522054e-07	1.762271e-06	5.986593e-01	5.097248e-01
7.728752601856901e-07	3.656962e-06	6.450796e-01	5.492493e-01
7.804963551899661e-07	7.865237e-06	7.083986e-01	6.031622e-01
7.918301021711116e-07	1.857995e-05	8.116499e-01	6.910754e-01
8.083867992898162e-07	4.543989e-05	9.790657e-01	8.336214e-01
8.331978035653427e-07	1.147193e-04	1.254357e+00	1.068018e+00
8.716207633330873e-07	2.880315e-04	1.705815e+00	1.452411e+00
9.151819649539673e-07	5.809023e-04	2.229723e+00	1.898493e+00
9.605135305610510e-07	1.028405e-03	2.778221e+00	2.365510e+00
1.045345971989290e-06	2.301614e-03	3.805126e+00	3.239868e+00
1.215010854845767e-06	6.475179e-03	5.858568e+00	4.988269e+00
1.554340620558721e-06	1.965463e-02	9.543710e+00	8.125980e+00
2.000683905379160e-06	4.234944e-02	1.338108e+01	1.139331e+01
2.065524837082987e-06	4.641938e-02	1.342381e+01	1.142969e+01
3.507064334548061e-06	1.376816e-01	1.344798e+01	1.145027e+01
4.948603832013136e-06	2.282882e-01	1.346661e+01	1.146613e+01
6.390143329478209e-06	3.182392e-01	1.347969e+01	1.147727e+01
7.831682826943283e-06	4.075345e-01	1.348723e+01	1.148369e+01
9.273222324408358e-06	4.961742e-01	1.348922e+01	1.148539e+01
1.071476182187343e-05	5.841583e-01	1.348567e+01	1.148236e+01
1.215630131933850e-05	6.714867e-01	1.347657e+01	1.147461e+01
1.631540042234664e-05	9.189957e-01	1.347656e+01	1.147461e+01
2.463359862836292e-05	1.394897e+00	1.347650e+01	1.147455e+01
4.126999504039548e-05	2.277971e+00	1.347638e+01	1.147445e+01
7.454278786446061e-05	3.833258e+00	1.347617e+01	1.147427e+01
1.233709128644606e-04	5.744767e+00	1.347592e+01	1.147405e+01
1.721990378644606e-04	7.278036e+00	1.347571e+01	1.147388e+01
2.210271628644606e-04	8.479031e+00	1.347554e+01	1.147374e+01
2.698552878644606e-04	9.420052e+00	1.347541e+01	1.147363e+01
3.186834128644606e-04	1.015765e+01	1.347508e+01	1.147334e+01
3.675115378644605e-04	1.074840e+01	1.347203e+01	1.147074e+01
3.950235801209373e-04	1.102070e+01	1.346314e+01	1.146317e+01
4.014162149819996e-04	1.107933e+01	1.346522e+01	1.146494e+01
4.078088498430618e-04	1.113576e+01	1.346412e+01	1.146401e+01
4.142014847041240e-04	1.118999e+01	1.345984e+01	1.146036e+01
4.205941195651862e-04	1.124202e+01	1.345238e+01	1.145401e+01
4.269867544262485e-04	1.129185e+01	1.344174e+01	1.144495e+01
4.333793892873107e-04	1.133948e+01	1.342792e+01	1.143319e+01
4.397720241483729e-04	1.138491e+01	1.341092e+01	1.141872e+01
4.417844445121614e-04	1.139869e+01	1.339547e+01	1.140556e+01
4.428222730685722e-04	1.140565e+01	1.337365e+01	1.138698e+01
4.431243743292517e-04	1.140763e+01	1.335355e+01	1.136986e+01
4.431740961218558e-04	1.140795e+01	1.334572e+01	1.136320e+01
4.432536696249637e-04	1.140846e+01	1.332441e+01	1.134505e+01
4.433074356215894e-04	1.140880e+01	1.329109e+01	1.131668e+01
4.433517196446439e-04	1.140907e+01	1.322420e+01	1.125973e+01
4.433994981827726e-04	1.140933e+01	1.307710e+01	1.113448e+01
4.434493049300493e-04	1.140956e+01	1.281452e+01	1.091091e+01
4.434908624253202e-04	1.140969e+01	1.248850e+01	1.063332e+01
4.435262872483321e-04	1.140975e+01	1.212731e+01	1.032579e+01
4.435696020943798e-04	1.140978e+01	1.162242e+01	9.895893e+00
4.436071997362611e-04	1.140978e+01	1.116259e+01	9.504379e+00
4.436572238705143e-04	1.140978e+01	1.054341e+01	8.977175e+00
4.437493689249698e-04	1.140975e+01	9.398083e+00	8.001987e+00
4.439336590338809e-04	1.140961e+01	7.086175e+00	6.033514e+00
4.443022392517031e-04	1.140900e+01	2.373997e+00	2.021335e+00
4.450393996873473e-04	1.140700e+01	-7.246177e+00	-6.169755e+00
4.452236897962584e-04	1.140629e+01	-9.489471e+00	-8.079806e+00
4.455922700140806e-04	1.140456e+01	-1.334910e+01	-1.136608e+01
4.456037881458875e-04	1.140450e+01	-1.340661e+01	-1.141505e+01
4.471357435320333e-04	1.139661e+01	-1.344072e+01	-1.144409e+01
4.486676989181791e-04	1.138871e+01	-1.346686e+01	-1.146635e+01
4.501996543043249e-04	1.138082e+01	-1.348503e+01	-1.148182e+01
4.517316096904708e-04	1.137293e+01	-1.349524e+01	-1.149052e+01
4.532635650766166e-04	1.136504e+01	-1.349748e+01	-1.149243e+01
4.547955204627624e-04	1.135715e+01	-1.349176e+01	-1.148755e+01
4.563274758489082e-04	1.134927e+01	-1.347807e+01	-1.147590e+01
7.311423067653919e-04	9.985766e+00	-1.347808e+01	-1.147590e+01
1.005957137681876e-03	8.689796e+00	-1.347809e+01	-1.147591e+01
1.280771968598359e-03	7.461356e+00	-1.347809e+01	-1.147591e+01
1.555586799514843e-03	6.300446e+00	-1.347809e+01	-1.147591e+01
1.830401630431327e-03	5.207067e+00	-1.347809e+01	-1.147591e+01
2.105216461347811e-03	4.181218e+00	-1.347809e+01	-1.147591e+01
2.380031292264294e-03	3.222899e+00	-1.347809e+01	-1.147591e+01
2.526515667264293e-03	2.730749e+00	-1.347809e+01	-1.147591e+01
2.673000042264293e-03	2.252593e+00	-1.347809e+01	-1.147591e+01
2.819484417264292e-03	1.788430e+00	-1.347809e+01	-1.147591e+01
2.965968792264292e-03	1.338261e+00	-1.347809e+01	-1.147591e+01
3.112453167264292e-03	9.020848e-01	-1.347809e+01	-1.147591e+01
3.258937542264291e-03	4.799025e-01	-1.347809e+01	-1.147591e+01
3.405421917264290e-03	7.171369e-02	-1.347809e+01	-1.147591e+01
3.454250042264290e-03	-6.190290e-02	-1.347809e+01	-1.147591e+01
3.503078167264290e-03	-1.941413e-01	-1.347809e+01	-1.147591e+01
3.600734417264289e-03	-4.545403e-01	-1.347809e+01	-1.147591e+01
3.747218792264289e-03	-8.351538e-01	-1.347809e+01	-1.147591e+01
3.991359417264288e-03	-1.440191e+00	-1.347809e+01	-1.147591e+01
4.235500042264287e-03	-2.018152e+00	-1.347809e+01	-1.147591e+01
4.479640667264286e-03	-2.569037e+00	-1.347809e+01	-1.147591e+01
4.723781292264286e-03	-3.092846e+00	-1.347809e+01	-1.147591e+01
4.967921917264285e-03	-3.589579e+00	-1.347809e+01	-1.147591e+01
5.212062542264285e-03	-4.059236e+00	-1.347809e+01	-1.147591e+01
5.456203167264283e-03	-4.501817e+00	-1.347809e+01	-1.147591e+01
5.881705399407140e-03	-5.214213e+00	-1.347809e+01	-1.147591e+01
6.307207631549998e-03	-5.876337e+00	-1.347809e+01	-1.147591e+01
6.732709863692855e-03	-6.488191e+00	-1.347809e+01	-1.147591e+01
7.158212095835711e-03	-7.049773e+00	-1.347809e+01	-1.147591e+01
7.583714327978569e-03	-7.561084e+00	-1.347809e+01	-1.147591e+01
8.009216560121426e-03	-8.022124e+00	-1.347809e+01	-1.147591e+01
8.434718792264283e-03	-8.432893e+00	-1.347809e+01	-1.147591e+01
8.867196470835718e-03	-8.817738e+00	-1.347809e+01	-1.147591e+01
9.299674149407152e-03	-9.175160e+00	-1.347809e+01	-1.147591e+01
9.732151827978586e-03	-9.505159e+00	-1.347809e+01	-1.147591e+01
1.016462950655002e-02	-9.807737e+00	-1.347809e+01	-1.147591e+01
1.059710718512146e-02	-1.008289e+01	-1.347809e+01	-1.147591e+01
1.102958486369289e-02	-1.033062e+01	-1.347809e+01	-1.147591e+01
1.146206254226433e-02	-1.055093e+01	-1.347809e+01	-1.147591e+01
1.172712950655004e-02	-1.067914e+01	-1.347876e+01	-1.147648e+01
1.199219647083576e-02	-1.080099e+01	-1.347723e+01	-1.147518e+01
1.225726343512148e-02	-1.091649e+01	-1.347351e+01	-1.147201e+01
1.252233039940720e-02	-1.102563e+01	-1.346760e+01	-1.146698e+01
1.278739736369292e-02	-1.112842e+01	-1.345949e+01	-1.146007e+01
1.305246432797863e-02	-1.122485e+01	-1.344918e+01	-1.145130e+01
1.331753129226435e-02	-1.131493e+01	-1.343669e+01	-1.144066e+01
1.346401566726435e-02	-1.136241e+01	-1.341763e+01	-1.142443e+01
1.351797865166037e-02	-1.137940e+01	-1.340083e+01	-1.141013e+01
1.351998675706949e-02	-1.138002e+01	-1.340489e+01	-1.141359e+01
1.352199486247861e-02	-1.138065e+01	-1.340613e+01	-1.141464e+01
1.352400296788773e-02	-1.138127e+01	-1.340456e+01	-1.141330e+01
1.352601107329685e-02	-1.138189e+01	-1.340017e+01	-1.140957e+01
1.352801917870597e-02	-1.138250e+01	-1.339296e+01	-1.140343e+01
1.353002728411509e-02	-1.138312e+01	-1.338294e+01	-1.139489e+01
1.353203538952421e-02	-1.138373e+01	-1.337009e+01	-1.138396e+01
1.353269546710631e-02	-1.138393e+01	-1.335160e+01	-1.136821e+01
1.353285461122272e-02	-1.138397e+01	-1.333380e+01	-1.135306e+01
1.353293778446695e-02	-1.138400e+01	-1.331142e+01	-1.133400e+01
1.353299297528530e-02	-1.138401e+01	-1.327372e+01	-1.130190e+01
1.353303607344432e-02	-1.138403e+01	-1.320224e+01	-1.124104e+01
1.353308223926644e-02	-1.138404e+01	-1.304483e+01	-1.110702e+01
1.353313014105956e-02	-1.138405e+01	-1.275510e+01	-1.086033e+01
1.353317300300517e-02	-1.138405e+01	-1.236007e+01	-1.052398e+01
1.353320740707913e-02	-1.138406e+01	-1.194995e+01	-1.017478e+01
1.353324889670205e-02	-1.138406e+01	-1.139762e+01	-9.704498e+00
1.353328455149702e-02	-1.138404e+01	-1.091760e+01	-9.295789e+00
1.353333197164001e-02	-1.138393e+01	-1.029663e+01	-8.767061e+00
1.353342571817727e-02	-1.138323e+01	-9.092801e+00	-7.742062e+00
1.353398819740083e-02	-1.136439e+01	-1.894575e+00	-1.613139e+00
1.353473816969891e-02	-1.131049e+01	6.482367e+00	5.519402e+00
1.353559448636590e-02	-1.122750e+01	1.338224e+01	1.139429e+01
1.353561162127171e-02	-1.122556e+01	1.343900e+01	1.144262e+01
1.353705286686712e-02	-1.105351e+01	1.345659e+01	1.145760e+01
1.353849411246254e-02	-1.088272e+01	1.347018e+01	1.146917e+01
1.353993535805795e-02	-1.071320e+01	1.347975e+01	1.147732e+01
1.354137660365336e-02	-1.054494e+01	1.348531e+01	1.148206e+01
1.354281784924877e-02	-1.037795e+01	1.348687e+01	1.148338e+01
1.354425909484419e-02	-1.021222e+01	1.348442e+01	1.148129e+01
1.354570034043960e-02	-1.004775e+01	1.347796e+01	1.147579e+01
1.355879475144397e-02	-8.619883e+00	1.347779e+01	1.147565e+01
1.357608555672981e-02	-6.900338e+00	1.347758e+01	1.147547e+01
1.361066716730149e-02	-3.880797e+00	1.347719e+01	1.147514e+01
1.365949529230149e-02	-3.200082e-01	1.347672e+01	1.147474e+01
1.370832341730149e-02	2.529509e+00	1.347635e+01	1.147442e+01
1.375715154230149e-02	4.760330e+00	1.347605e+01	1.147417e+01
1.380597966730149e-02	6.507086e+00	1.347581e+01	1.147397e+01
1.385480779230149e-02	7.875112e+00	1.347563e+01	1.147381e+01
1.390363591730149e-02	8.946818e+00	1.347548e+01	1.147368e+01
1.395246404230149e-02	9.786686e+00	1.347536e+01	1.147358e+01
1.400129216730149e-02	1.045286e+01	1.347438e+01	1.147275e+01
1.403825941499036e-02	1.086191e+01	1.346941e+01	1.146851e+01
1.406749360597833e-02	1.113232e+01	1.345644e+01	1.145747e+01
1.407214471760685e-02	1.117271e+01	1.345776e+01	1.145860e+01
1.407679582923536e-02	1.121182e+01	1.345636e+01	1.145740e+01
1.408144694086388e-02	1.124962e+01	1.345224e+01	1.145389e+01
1.408609805249239e-02	1.128613e+01	1.344539e+01	1.144806e+01
1.409074916412090e-02	1.132134e+01	1.343582e+01	1.143992e+01
1.409540027574942e-02	1.135526e+01	1.342353e+01	1.142945e+01
1.410005138737793e-02	1.138788e+01	1.340851e+01	1.141667e+01
1.410162274144045e-02	1.139862e+01	1.339567e+01	1.140573e+01
1.410265565928588e-02	1.140555e+01	1.337431e+01	1.138754e+01
1.410296597061273e-02	1.140759e+01	1.335444e+01	1.137062e+01
1.410309943844770e-02	1.140845e+01	1.332568e+01	1.134614e+01
1.410315438131107e-02	1.140879e+01	1.329306e+01	1.131836e+01
1.410319964181205e-02	1.140907e+01	1.322688e+01	1.126202e+01
1.410324715776723e-02	1.140933e+01	1.308379e+01	1.114018e+01
1.410329697683491e-02	1.140956e+01	1.282436e+01	1.091929e+01
1.410333999342178e-02	1.140970e+01	1.248933e+01	1.063403e+01
1.410337562359442e-02	1.140976e+01	1.212706e+01	1.032557e+01
1.410341944116553e-02	1.140978e+01	1.161627e+01	9.890663e+00
1.410345700602987e-02	1.140979e+01	1.115681e+01	9.499455e+00
1.410350720695311e-02	1.140978e+01	1.053541e+01	8.970366e+00
1.410359933486994e-02	1.140976e+01	9.390265e+00	7.995331e+00
1.410378359070358e-02	1.140962e+01	7.078714e+00	6.027162e+00
1.410415210237088e-02	1.140901e+01	2.367276e+00	2.015612e+00
1.410488912570547e-02	1.140701e+01	-7.251349e+00	-6.174159e+00
1.410507338153912e-02	1.140630e+01	-9.493597e+00	-8.083319e+00
1.410544189320642e-02	1.140457e+01	-1.334924e+01	-1.136620e+01
1.410545340919602e-02	1.140451e+01	-1.340668e+01	-1.141511e+01
1.410698540299838e-02	1.139661e+01	-1.344075e+01	-1.144412e+01
1.410851739680074e-02	1.138872e+01	-1.346686e+01	-1.146635e+01
1.411004939060310e-02	1.138083e+01	-1.348502e+01	-1.148181e+01
1.411158138440546e-02	1.137294e+01	-1.349522e+01	-1.149050e+01
1.411311337820782e-02	1.136505e+01	-1.349746e+01	-1.149241e+01
1.411464537201018e-02	1.135716e+01	-1.349175e+01	-1.148754e+01
1.411617736581254e-02	1.134927e+01	-1.347807e+01	-1.147590e+01
1.439099216743082e-02	9.985771e+00	-1.347808e+01	-1.147590e+01
1.466580696904910e-02	8.689801e+00	-1.347809e+01	-1.147591e+01
1.494062177066737e-02	7.461361e+00	-1.347809e+01	-1.147591e+01
1.521543657228565e-02	6.300451e+00	-1.347809e+01	-1.147591e+01
1.549025137390393e-02	5.207072e+00	-1.347809e+01	-1.147591e+01
1.576506617552221e-02	4.181222e+00	-1.347809e+01	-1.147591e+01
1.603988097714049e-02	3.222903e+00	-1.347809e+01	-1.147591e+01
1.618636535214049e-02	2.730753e+00	-1.347809e+01	-1.147591e+01
1.633284972714049e-02	2.252597e+00	-1.347809e+01	-1.147591e+01
1.647933410214049e-02	1.788434e+00	-1.347809e+01	-1.147591e+01
1.662581847714049e-02	1.338264e+00	-1.347809e+01	-1.147591e+01
1.677230285214050e-02	9.020882e-01	-1.347809e+01	-1.147591e+01
1.691878722714050e-02	4.799058e-01	-1.347809e+01	-1.147591e+01
1.706527160214050e-02	7.171687e-02	-1.347809e+01	-1.147591e+01
1.711409972714050e-02	-6.189974e-02	-1.347809e+01	-1.147591e+01
1.716292785214050e-02	-1.941382e-01	-1.347809e+01	-1.147591e+01
1.726058410214050e-02	-4.545373e-01	-1.347809e+01	-1.147591e+01
1.740706847714051e-02	-8.351508e-01	-1.347809e+01	-1.147591e+01
1.765120910214051e-02	-1.440188e+00	-1.347809e+01	-1.147591e+01
1.789534972714051e-02	-2.018149e+00	-1.347809e+01	-1.147591e+01
1.813949035214052e-02	-2.569034e+00	-1.347809e+01	-1.147591e+01
1.838363097714052e-02	-3.092843e+00	-1.347809e+01	-1.147591e+01
1.862777160214052e-02	-3.589577e+00	-1.347809e+01	-1.147591e+01
1.887191222714053e-02	-4.059234e+00	-1.347809e+01	-1.147591e+01
1.911605285214053e-02	-4.501815e+00	-1.347809e+01	-1.147591e+01
1.954155508428339e-02	-5.214211e+00	-1.347809e+01	-1.147591e+01
1.996705731642626e-02	-5.876336e+00	-1.347809e+01	-1.147591e+01
2.039255954856912e-02	-6.488189e+00	-1.347809e+01	-1.147591e+01
2.081806178071198e-02	-7.049772e+00	-1.347809e+01	-1.147591e+01
2.124356401285485e-02	-7.561083e+00	-1.347809e+01	-1.147591e+01
2.166906624499771e-02	-8.022123e+00	-1.347809e+01	-1.147591e+01
2.209456847714057e-02	-8.432892e+00	-1.347809e+01	-1.147591e+01
2.252704615571201e-02	-8.817737e+00	-1.347809e+01	-1.147591e+01
2.295952383428344e-02	-9.175159e+00	-1.347809e+01	-1.147591e+01
2.339200151285488e-02	-9.505159e+00	-1.347809e+01	-1.147591e+01
2.382447919142631e-02	-9.807736e+00	-1.347809e+01	-1.147591e+01
2.425695686999775e-02	-1.008289e+01	-1.347809e+01	-1.147591e+01
2.468943454856918e-02	-1.033062e+01	-1.347809e+01	-1.147591e+01
2.512191222714062e-02	-1.055093e+01	-1.347809e+01	-1.147591e+01
2.538697919142633e-02	-1.067914e+01	-1.347876e+01	-1.147648e+01
2.565204615571205e-02	-1.080099e+01	-1.347723e+01	-1.147518e+01
2.591711311999777e-02	-1.091649e+01	-1.347351e+01	-1.147201e+01
2.618218008428349e-02	-1.102563e+01	-1.346760e+01	-1.146698e+01
2.644724704856920e-02	-1.112842e+01	-1.345949e+01	-1.146007e+01
2.671231401285492e-02	-1.122485e+01	-1.344919e+01	-1.145130e+01
2.697738097714064e-02	-1.131493e+01	-1.343669e+01	-1.144066e+01
2.712386535214064e-02	-1.136241e+01	-1.341763e+01	-1.142443e+01
2.717782898261749e-02	-1.137940e+01	-1.340083e+01	-1.141013e+01
2.717983709036889e-02	-1.138002e+01	-1.340489e+01	-1.141359e+01
2.718184519812029e-02	-1.138065e+01	-1.340613e+01	-1.141465e+01
2.718385330587169e-02	-1.138127e+01	-1.340456e+01	-1.141331e+01
2.718586141362309e-02	-1.138189e+01	-1.340017e+01	-1.140957e+01
2.718786952137449e-02	-1.138250e+01	-1.339296e+01	-1.140343e+01
2.718987762912589e-02	-1.138312e+01	-1.338294e+01	-1.139489e+01
2.719188573687729e-02	-1.138373e+01	-1.337009e+01	-1.138396e+01
2.719254578813329e-02	-1.138393e+01	-1.335160e+01	-1.136821e+01
2.719270492943719e-02	-1.138397e+01	-1.333380e+01	-1.135306e+01
2.719278810072344e-02	-1.138400e+01	-1.331142e+01	-1.133400e+01
2.719284329064845e-02	-1.138401e+01	-1.327372e+01	-1.130190e+01
2.719288638830965e-02	-1.138403e+01	-1.320224e+01	-1.124104e+01
2.719293255418451e-02	-1.138404e+01	-1.304483e+01	-1.110701e+01
2.719298045593245e-02	-1.138405e+01	-1.275510e+01	-1.086032e+01
2.719302331743274e-02	-1.138405e+01	-1.236007e+01	-1.052398e+01
2.719305772140314e-02	-1.138406e+01	-1.194995e+01	-1.017478e+01
2.719309921088097e-02	-1.138406e+01	-1.139762e+01	-9.704500e+00
2.719313486566334e-02	-1.138404e+01	-1.091761e+01	-9.295792e+00
2.719318228575108e-02	-1.138393e+01	-1.029664e+01	-8.767065e+00
2.719327603185188e-02	-1.138323e+01	-9.092812e+00	-7.742070e+00
2.719383850845674e-02	-1.136439e+01	-1.894619e+00	-1.613175e+00
2.719458847726322e-02	-1.131049e+01	6.482300e+00	5.519345e+00
2.719544479498545e-02	-1.122750e+01	1.338224e+01	1.139429e+01
2.719546192994594e-02	-1.122557e+01	1.343900e+01	1.144262e+01
2.719690317635264e-02	-1.105351e+01	1.345659e+01	1.145760e+01
2.719834442275934e-02	-1.088272e+01	1.347018e+01	1.146917e+01
2.719978566916604e-02	-1.071320e+01	1.347975e+01	1.147732e+01
2.720122691557274e-02	-1.054494e+01	1.348531e+01	1.148206e+01
2.720266816197944e-02	-1.037795e+01	1.348687e+01	1.148338e+01
2.720410940838613e-02	-1.021222e+01	1.348442e+01	1.148129e+01
2.720555065479283e-02	-1.004775e+01	1.347796e+01	1.147579e+01
2.721864506459679e-02	-8.619883e+00	1.347779e+01	1.147565e+01
2.723593588224376e-02	-6.900337e+00	1.347758e+01	1.147547e+01
2.727051751753770e-02	-3.880795e+00	1.347719e+01	1.147514e+01
2.731934564253770e-02	-3.200057e-01	1.347672e+01	1.147474e+01
2.736817376753770e-02	2.529511e+00	1.347635e+01	1.147442e+01
2.741700189253770e-02	4.760332e+00	1.347605e+01	1.147417e+01
2.746583001753770e-02	6.507088e+00	1.347581e+01	1.147397e+01
2.751465814253770e-02	7.875113e+00	1.347563e+01	1.147381e+01
2.756348626753771e-02	8.946819e+00	1.347548e+01	1.147368e+01
2.761231439253771e-02	9.786686e+00	1.347536e+01	1.147358e+01
2.766114251753771e-02	1.045286e+01	1.347438e+01	1.147275e+01
2.769810973310640e-02	1.086191e+01	1.346941e+01	1.146851e+01
2.772734391997298e-02	1.113232e+01	1.345644e+01	1.145747e+01
2.773199503173171e-02	1.117271e+01	1.345776e+01	1.145860e+01
2.773664614349045e-02	1.121182e+01	1.345636e+01	1.145740e+01
2.774129725524919e-02	1.124962e+01	1.345224e+01	1.145389e+01
2.774594836700793e-02	1.128613e+01	1.344539e+01	1.144806e+01
2.775059947876666e-02	1.132134e+01	1.343582e+01	1.143992e+01
2.775525059052540e-02	1.135526e+01	1.342353e+01	1.142945e+01
2.775990170228414e-02	1.138788e+01	1.340851e+01	1.141667e+01
2.776147301872045e-02	1.139862e+01	1.339567e+01	1.140573e+01
2.776250597841539e-02	1.140555e+01	1.337431e+01	1.138754e+01
2.776281628704207e-02	1.140759e+01	1.335444e+01	1.137062e+01
