time	V(n002)	V(n004)
0.000000000000000e+00	0.000000e+00	0.000000e+00
1.000000013351432e-10	-4.523468e+00	2.534627e+00
1.125000015020361e-10	-4.523519e+00	2.695533e+00
1.375000018358219e-10	-1.003705e+00	2.740731e+00
1.413800862822889e-10	-1.003704e+00	2.747966e+00
1.957012685328277e-10	-1.003691e+00	2.850523e+00
2.577826196763007e-10	-1.003677e+00	2.966012e+00
3.819453219632464e-10	-1.003656e+00	3.191628e+00
6.302707265371381e-10	-1.003637e+00	3.622327e+00
1.126921535684921e-09	-1.003690e+00	4.421667e+00
1.749327268323159e-09	-1.003925e+00	5.323731e+00
2.453411517459028e-09	-1.004409e+00	6.206332e+00
3.472692861073294e-09	-1.005511e+00	7.254666e+00
4.950943838884871e-09	-1.007912e+00	8.375347e+00
7.379118680852702e-09	-1.013785e+00	9.438012e+00
1.031257652092670e-08	-1.023814e+00	9.492575e+00
1.412636013633401e-08	-1.041110e+00	7.629915e+00
1.794294846898953e-08	-1.062634e+00	4.305094e+00
1.972194884389506e-08	-1.073938e+00	2.699391e+00
2.111036387931006e-08	-1.083254e+00	1.818305e+00
2.279782453180246e-08	-1.095122e+00	1.190894e+00
2.413990900855151e-08	-1.104966e+00	8.907131e-01
2.571655185610902e-08	-1.116962e+00	6.756957e-01
2.733451466916377e-08	-1.129730e+00	5.370503e-01
2.961609012063934e-08	-1.148463e+00	4.201123e-01
3.170984371989732e-08	-1.166351e+00	3.592976e-01
3.453654683288399e-08	-1.191459e+00	3.212499e-01
3.757834604911145e-08	-1.219585e+00	3.076791e-01
4.092695800420003e-08	-1.251722e+00	3.055946e-01
4.465864895659046e-08	-1.288804e+00	3.054706e-01
5.177713555383816e-08	-1.362565e+00	3.052702e-01
6.601410874833355e-08	-1.518663e+00	3.049197e-01
8.713086043390709e-08	-1.762920e+00	3.044267e-01
1.108145133905726e-07	-2.045748e+00	3.038722e-01
1.384351716147776e-07	-2.380232e+00	3.032145e-01
2.044541230127218e-07	-3.185905e+00	3.016236e-01
2.672234790131712e-07	-3.955214e+00	3.001017e-01
3.927621910140700e-07	-5.501468e+00	2.970448e-01
5.685779509587168e-07	-7.683994e+00	2.927427e-01
7.304822381059716e-07	-9.711498e+00	2.889502e-01
9.507941907973674e-07	-1.209682e+01	2.843433e-01
9.677806410968907e-07	-1.211697e+01	2.841627e-01
1.001753541695937e-06	-1.214343e+01	2.841257e-01
1.069699342894030e-06	-1.217461e+01	2.841145e-01
1.156374356553496e-06	-1.219832e+01	2.841281e-01
1.278011405219038e-06	-1.221087e+01	2.841630e-01
1.281812562989836e-06	-1.221087e+01	2.841642e-01
1.289414878531433e-06	-1.221088e+01	2.841669e-01
1.304619509614625e-06	-1.221089e+01	2.841727e-01
1.335028771781011e-06	-1.221090e+01	2.841853e-01
1.395847296113782e-06	-1.221092e+01	2.842107e-01
1.517484344779323e-06	-1.221095e+01	2.842613e-01
2.247306636772573e-06	-1.221100e+01	2.845581e-01
3.220403026096907e-06	-1.221102e+01	2.849384e-01
4.421692885606671e-06	-1.221102e+01	2.853866e-01
5.904066339641931e-06	-1.221103e+01	2.859069e-01
7.672952860987493e-06	-1.221103e+01	2.864812e-01
1.018421467918232e-05	-1.221103e+01	2.872160e-01
1.381214902906956e-05	-1.221103e+01	2.881259e-01
2.016943272402155e-05	-1.221103e+01	2.893591e-01
3.288400011392554e-05	-1.221104e+01	2.910437e-01
4.750546222781024e-05	-1.221104e+01	2.921783e-01
6.641385938441095e-05	-1.221104e+01	2.928854e-01
8.769475754950421e-05	-1.221104e+01	2.932163e-01
1.177472731680516e-04	-1.221105e+01	2.933669e-01
1.569083326314353e-04	-1.221105e+01	2.934158e-01
2.008536451314353e-04	-1.221106e+01	2.934237e-01
2.447989576314353e-04	-1.221106e+01	2.934242e-01
4.708034219171495e-04	-1.221108e+01	2.934242e-01
6.968078862028637e-04	-1.221110e+01	2.934241e-01
9.228123504885781e-04	-1.221112e+01	2.934241e-01
1.148816814774292e-03	-1.221114e+01	2.934241e-01
1.374821279060006e-03	-1.221116e+01	2.934241e-01
1.600825743345721e-03	-1.221117e+01	2.934241e-01
1.826830207631434e-03	-1.221119e+01	2.934241e-01
2.241171725488577e-03	-1.221121e+01	2.934241e-01
2.655513243345719e-03	-1.221124e+01	2.934241e-01
3.069854761202861e-03	-1.221126e+01	2.934241e-01
3.484196279060004e-03	-1.221128e+01	2.934241e-01
3.898537796917146e-03	-1.221130e+01	2.934241e-01
4.312879314774289e-03	-1.221132e+01	2.934240e-01
4.727220832631430e-03	-1.221134e+01	2.934240e-01
5.154118154060001e-03	-1.221135e+01	2.934240e-01
5.581015475488572e-03	-1.221136e+01	2.934240e-01
6.007912796917142e-03	-1.221138e+01	2.934240e-01
6.434810118345713e-03	-1.221139e+01	2.934240e-01
6.861707439774285e-03	-1.221140e+01	2.934240e-01
7.288604761202855e-03	-1.221141e+01	2.934240e-01
7.715502082631425e-03	-1.221142e+01	2.934240e-01
8.104731993345710e-03	-1.221143e+01	2.934240e-01
8.493961904059995e-03	-1.221144e+01	2.934240e-01
8.883191814774281e-03	-1.221143e+01	2.934240e-01
9.272421725488566e-03	-1.221142e+01	2.934240e-01
9.661651636202851e-03	-1.221139e+01	2.934240e-01
1.005088154691714e-02	-1.221135e+01	2.934240e-01
1.044011145763142e-02	-1.221130e+01	2.934241e-01
1.053486853770955e-02	-1.221119e+01	2.934241e-01
1.054310828380330e-02	-1.221109e+01	2.934242e-01
1.054407272853463e-02	-1.221104e+01	2.934243e-01
1.054600161799730e-02	-1.221059e+01	2.934249e-01
1.054831956890606e-02	-1.220910e+01	2.934265e-01
1.055060495571795e-02	-1.220570e+01	2.934302e-01
1.055270337797366e-02	-1.219885e+01	2.934373e-01
1.055425648544801e-02	-1.218803e+01	2.934462e-01
1.055446154364630e-02	-1.218581e+01	2.934482e-01
1.055487166004288e-02	-1.218058e+01	2.934539e-01
1.055560914305954e-02	-1.216562e+01	2.934704e-01
1.055614681343358e-02	-1.214351e+01	2.934895e-01
1.055622517922294e-02	-1.213825e+01	2.934943e-01
1.055638191080167e-02	-1.212470e+01	2.935075e-01
1.055642109369635e-02	-1.212009e+01	2.935119e-01
1.055649945948572e-02	-1.210913e+01	2.935250e-01
1.055663594428558e-02	-1.207578e+01	2.935568e-01
1.055665474845402e-02	-1.206802e+01	2.935640e-01
1.055669235679089e-02	-1.204772e+01	2.935885e-01
1.055673812844218e-02	-1.200252e+01	2.936554e-01
1.055677827871499e-02	-1.189967e+01	2.938524e-01
1.055683101599102e-02	-1.157905e+01	2.944410e-01
1.055687948314833e-02	-1.111367e+01	2.952982e-01
1.055692108633629e-02	-1.061405e+01	2.962345e-01
1.055696467056378e-02	-1.006007e+01	2.973039e-01
1.055701004743675e-02	-9.501126e+00	2.984129e-01
1.055706434981313e-02	-8.850865e+00	2.997083e-01
1.055718513242715e-02	-7.407207e+00	3.025553e-01
1.055721860929677e-02	-7.007496e+00	3.033412e-01
1.055726157175583e-02	-6.494968e+00	3.043467e-01
1.055729387486221e-02	-6.109897e+00	3.051006e-01
1.055732617796858e-02	-5.724826e+00	3.058530e-01
1.055735848107495e-02	-5.339756e+00	3.066040e-01
1.055739078418132e-02	-4.954686e+00	3.073536e-01
1.055742308728770e-02	-4.569617e+00	3.081017e-01
1.055745539039407e-02	-4.184549e+00	3.088485e-01
1.055748769350044e-02	-3.799481e+00	3.095938e-01
1.055760460786614e-02	-2.405547e+00	3.122042e-01
1.055771579065761e-02	-1.079529e+00	3.134741e-01
1.055781214144643e-02	7.241455e-02	3.123861e-01
1.055790716453611e-02	1.208464e+00	3.100728e-01
1.055803288436587e-02	2.711473e+00	3.070119e-01
1.055813562739687e-02	3.939762e+00	3.046668e-01
1.055818838667968e-02	4.570487e+00	3.037535e-01
1.055823794665702e-02	5.162959e+00	3.032680e-01
1.055825156900861e-02	5.325808e+00	3.032205e-01
1.055826504420015e-02	5.486897e+00	3.032254e-01
1.055827710880881e-02	5.631124e+00	3.032399e-01
1.055829227275911e-02	5.812400e+00	3.032644e-01
1.055830899657376e-02	6.012323e+00	3.032924e-01
1.055832739395895e-02	6.232253e+00	3.033195e-01
1.055834658128794e-02	6.461624e+00	3.033411e-01
1.055836780289601e-02	6.715312e+00	3.033570e-01
1.055839221590618e-02	7.007150e+00	3.033676e-01
1.055841722825571e-02	7.306150e+00	3.033735e-01
1.055843635350789e-02	7.534774e+00	3.033761e-01
1.055845863345911e-02	7.801108e+00	3.033786e-01
1.055848282208716e-02	8.090258e+00	3.033817e-01
1.055851372239724e-02	8.459634e+00	3.033866e-01
1.055855331083970e-02	8.932863e+00	3.033940e-01
1.055862812011243e-02	9.827097e+00	3.034089e-01
1.055870264926165e-02	1.071796e+01	3.034238e-01
1.055878573142003e-02	1.171104e+01	3.034402e-01
1.055892392299785e-02	1.332038e+01	3.034675e-01
1.055910533526185e-02	1.342109e+01	3.035032e-01
1.056019380884586e-02	1.346354e+01	3.037175e-01
1.056422821356953e-02	1.347746e+01	3.045119e-01
1.057337257117795e-02	1.347780e+01	3.063120e-01
1.058178823480372e-02	1.347769e+01	3.079682e-01
1.059862844181983e-02	1.347748e+01	3.112813e-01
1.060203807166432e-02	1.347744e+01	3.119520e-01
1.060544770150881e-02	1.347740e+01	3.126227e-01
1.060885733135330e-02	1.347736e+01	3.132933e-01
1.061226696119779e-02	1.347732e+01	3.139638e-01
1.061567659104228e-02	1.347728e+01	3.146342e-01
1.061908622088677e-02	1.347724e+01	3.153045e-01
1.062249585073126e-02	1.347721e+01	3.159748e-01
1.062257959122103e-02	1.347721e+01	3.166333e-01
1.062258540280011e-02	1.347721e+01	3.442294e-01
1.062259702595827e-02	1.347721e+01	5.739686e-01
1.062260338287646e-02	1.347721e+01	9.906588e-01
1.062260882660415e-02	1.347721e+01	1.846766e+00
1.062261332211136e-02	1.347721e+01	3.142673e+00
1.062261763545737e-02	1.347721e+01	4.962020e+00
1.062262223917843e-02	1.347721e+01	7.209446e+00
1.062262728536218e-02	1.347721e+01	9.438519e+00
1.062263338132817e-02	1.347721e+01	1.134198e+01
1.062263930945064e-02	1.347721e+01	1.239667e+01
1.062264367363849e-02	1.347721e+01	1.276448e+01
1.062264897252554e-02	1.347721e+01	1.295553e+01
1.062265482575206e-02	1.347721e+01	1.304470e+01
1.062266281840469e-02	1.347721e+01	1.308550e+01
1.062267268023685e-02	1.347721e+01	1.309725e+01
1.062268833939400e-02	1.347720e+01	1.309480e+01
1.062270659814230e-02	1.347720e+01	1.308662e+01
1.062272612499707e-02	1.347720e+01	1.307845e+01
1.062274482476825e-02	1.347720e+01	1.307296e+01
1.062276482865328e-02	1.347720e+01	1.306958e+01
1.062278798564901e-02	1.347720e+01	1.306778e+01
1.062280074312112e-02	1.347720e+01	1.306747e+01
1.062280870948312e-02	1.347720e+01	1.306751e+01
1.062281891729378e-02	1.347720e+01	1.306767e+01
1.062282855430986e-02	1.347720e+01	1.306786e+01
1.062283883904899e-02	1.347720e+01	1.306808e+01
1.062284977017774e-02	1.347720e+01	1.306830e+01
1.062286098452274e-02	1.347720e+01	1.306847e+01
1.062287380329477e-02	1.347720e+01	1.306860e+01
1.062289014771001e-02	1.347720e+01	1.306866e+01
1.062291480639917e-02	1.347720e+01	1.306856e+01
1.062295695860047e-02	1.347720e+01	1.306814e+01
1.062299283207267e-02	1.347720e+01	1.306768e+01
1.062303516979941e-02	1.347720e+01	1.306711e+01
1.062307431119470e-02	1.347720e+01	1.306662e+01
1.062314021304739e-02	1.347720e+01	1.306584e+01
1.062322893992307e-02	1.347720e+01	1.306480e+01
1.062333015074573e-02	1.347720e+01	1.306360e+01
1.062351426685195e-02	1.347720e+01	1.306142e+01
1.062378750318909e-02	1.347719e+01	1.305818e+01
1.062433397586337e-02	1.347719e+01	1.305172e+01
1.062488924633348e-02	1.347718e+01	1.304516e+01
1.062570665390798e-02	1.347717e+01	1.303551e+01
1.062835003782161e-02	1.347714e+01	1.300445e+01
1.063804699664901e-02	1.347704e+01	1.289192e+01
1.063808774017350e-02	1.347704e+01	1.289145e+01
1.063814166948409e-02	1.347704e+01	1.289083e+01
1.063819667382663e-02	1.347704e+01	1.289020e+01
1.063820707709354e-02	1.347704e+01	1.289008e+01
1.063822788362736e-02	1.347704e+01	1.288985e+01
1.063823308526081e-02	1.347704e+01	1.288979e+01
1.063824348852772e-02	1.347704e+01	1.288967e+01
1.063824608934445e-02	1.347704e+01	1.288964e+01
1.063825129097791e-02	1.347704e+01	1.286692e+01
1.063826169424482e-02	1.347704e+01	1.218965e+01
1.063826567477580e-02	1.347704e+01	1.007031e+01
1.063826823714242e-02	1.347704e+01	6.293036e+00
1.063827015957092e-02	1.347704e+01	2.429103e+00
1.063827091391546e-02	1.347704e+01	1.342589e+00
1.063827175993686e-02	1.347704e+01	7.964714e-01
1.063827212803735e-02	1.347704e+01	6.778373e-01
1.063827271464994e-02	1.347704e+01	5.650847e-01
1.063827331176204e-02	1.347704e+01	4.851258e-01
1.063827432243478e-02	1.347704e+01	4.010366e-01
1.063827540354063e-02	1.347704e+01	3.501341e-01
1.063827676598697e-02	1.347704e+01	3.228152e-01
1.063827835717690e-02	1.347704e+01	3.146070e-01
1.063828019506722e-02	1.347704e+01	3.139371e-01
1.063828209985992e-02	1.347704e+01	3.138069e-01
1.063828590944530e-02	1.347704e+01	3.136023e-01
1.063829352861607e-02	1.347704e+01	3.133802e-01
1.063830320632717e-02	1.347704e+01	3.132693e-01
1.063831497907980e-02	1.347704e+01	3.132755e-01
1.063832935843289e-02	1.347704e+01	3.133542e-01
1.063834854778182e-02	1.347704e+01	3.134789e-01
1.063836657260032e-02	1.347704e+01	3.135770e-01
1.063838616915409e-02	1.347704e+01	3.136509e-01
1.063840535885078e-02	1.347704e+01	3.136919e-01
1.063842896741144e-02	1.347704e+01	3.137144e-01
1.063844319604893e-02	1.347704e+01	3.137196e-01
1.063845190014623e-02	1.347704e+01	3.137184e-01
1.063846115507666e-02	1.347704e+01	3.137166e-01
1.063846979633898e-02	1.347704e+01	3.137147e-01
1.063847988621992e-02	1.347704e+01	3.137121e-01
1.063848971779300e-02	1.347704e+01	3.137102e-01
1.063850111733530e-02	1.347704e+01	3.137080e-01
1.063851373761516e-02	1.347704e+01	3.137074e-01
1.063853244472920e-02	1.347704e+01	3.137069e-01
1.063855654169293e-02	1.347704e+01	3.137097e-01
1.063859743194498e-02	1.347704e+01	3.137168e-01
1.063863039518067e-02	1.347704e+01	3.137237e-01
1.063866976817582e-02	1.347704e+01	3.137321e-01
1.063871337797304e-02	1.347704e+01	3.137412e-01
1.063877750251666e-02	1.347704e+01	3.137537e-01
1.063918520486941e-02	1.347703e+01	3.138338e-01
1.064786706259904e-02	1.347695e+01	3.155766e-01
1.064790314732085e-02	1.347695e+01	3.155617e-01
1.064793923204266e-02	1.347695e+01	3.155525e-01
1.064797531676447e-02	1.347695e+01	3.155488e-01
1.064801140148628e-02	1.347695e+01	3.155508e-01
1.064804748620809e-02	1.347695e+01	3.155584e-01
1.064808357092990e-02	1.347695e+01	3.155716e-01
1.064811965565171e-02	1.347694e+01	3.155904e-01
1.065012899182894e-02	1.347693e+01	3.159854e-01
1.065013603997765e-02	1.347693e+01	3.242719e-01
1.065015013627508e-02	1.347693e+01	4.261244e-01
1.065015763178850e-02	1.347693e+01	6.697912e-01
1.065016357429674e-02	1.347693e+01	1.205105e+00
1.065016810843496e-02	1.347692e+01	2.067471e+00
1.065017246198363e-02	1.347692e+01	3.470264e+00
1.065017660012509e-02	1.347692e+01	5.299904e+00
1.065018137544094e-02	1.347692e+01	7.639819e+00
1.065018636080938e-02	1.347692e+01	9.766329e+00
1.065019235307274e-02	1.347692e+01	1.150152e+01
1.065019865973142e-02	1.347692e+01	1.250471e+01
1.065020300590144e-02	1.347692e+01	1.282150e+01
1.065020847784290e-02	1.347692e+01	1.298324e+01
1.065021438656427e-02	1.347692e+01	1.305562e+01
1.065022309360635e-02	1.347692e+01	1.308931e+01
1.065023360083791e-02	1.347692e+01	1.309740e+01
1.065025131945146e-02	1.347692e+01	1.309250e+01
1.065027047642726e-02	1.347692e+01	1.308379e+01
1.065028979927629e-02	1.347692e+01	1.307628e+01
1.065030851407178e-02	1.347692e+01	1.307147e+01
1.065032894490226e-02	1.347692e+01	1.306868e+01
1.065035525081754e-02	1.347692e+01	1.306723e+01
1.065036551509520e-02	1.347692e+01	1.306714e+01
1.065037467728038e-02	1.347692e+01	1.306727e+01
1.065038483641896e-02	1.347692e+01	1.306748e+01
1.065039564136277e-02	1.347692e+01	1.306771e+01
1.065040682632822e-02	1.347692e+01	1.306794e+01
1.065041762466090e-02	1.347692e+01	1.306812e+01
1.065043032300796e-02	1.347692e+01	1.306827e+01
1.065044539527321e-02	1.347692e+01	1.306834e+01
1.065046919947086e-02	1.347692e+01	1.306827e+01
1.065050665141635e-02	1.347692e+01	1.306793e+01
1.065053787516232e-02	1.347692e+01	1.306753e+01
1.065057348415456e-02	1.347692e+01	1.306705e+01
1.065061290422784e-02	1.347692e+01	1.306655e+01
1.065066618804744e-02	1.347692e+01	1.306590e+01
1.065075738131253e-02	1.347692e+01	1.306483e+01
1.065085472363128e-02	1.347692e+01	1.306368e+01
1.065099465727708e-02	1.347692e+01	1.306202e+01
1.065127452456868e-02	1.347691e+01	1.305870e+01
1.065163776083965e-02	1.347691e+01	1.305441e+01
1.065228212158948e-02	1.347690e+01	1.304679e+01
1.065291067511783e-02	1.347690e+01	1.303937e+01
1.065390874674445e-02	1.347689e+01	1.302761e+01
1.065751418030814e-02	1.347686e+01	1.298538e+01
1.066290735849476e-02	1.347681e+01	1.292269e+01
1.066561342226320e-02	1.347678e+01	1.289151e+01
1.066562605516336e-02	1.347678e+01	1.289137e+01
1.066564812792735e-02	1.347678e+01	1.289112e+01
1.066567073997681e-02	1.347678e+01	1.289085e+01
1.066569257628850e-02	1.347678e+01	1.289060e+01
1.066572042017356e-02	1.347678e+01	1.289028e+01
1.066572738114482e-02	1.347678e+01	1.289020e+01
1.066574130308735e-02	1.347678e+01	1.289005e+01
1.066576914697240e-02	1.347678e+01	1.288969e+01
1.066577610794367e-02	1.347678e+01	1.288947e+01
1.066577784818648e-02	1.347678e+01	1.288908e+01
1.066578132867211e-02	1.347678e+01	1.288101e+01
1.066578466908250e-02	1.347678e+01	1.281309e+01
1.066578722878198e-02	1.347678e+01	1.251434e+01
1.066578916635113e-02	1.347678e+01	1.168523e+01
1.066579063069322e-02	1.347678e+01	1.009509e+01
1.066579187062836e-02	1.347678e+01	7.677680e+00
1.066579324926947e-02	1.347678e+01	4.269613e+00
1.066579399918382e-02	1.347678e+01	2.587929e+00
1.066579463891873e-02	1.347678e+01	1.627525e+00
1.066579538473383e-02	1.347678e+01	9.998583e-01
1.066579583719633e-02	1.347678e+01	7.905976e-01
1.066579636327040e-02	1.347678e+01	6.495952e-01
1.066579693924417e-02	1.347678e+01	5.470455e-01
1.066579790016509e-02	1.347678e+01	4.387293e-01
1.066579882356544e-02	1.347678e+01	3.767159e-01
1.066580006749947e-02	1.347678e+01	3.351005e-01
1.066580143415536e-02	1.347678e+01	3.178222e-01
1.066580309366540e-02	1.347678e+01	3.140568e-01
1.066580490512482e-02	1.347678e+01	3.139009e-01
1.066580746454559e-02	1.347678e+01	3.137360e-01
1.066581258338713e-02	1.347678e+01	3.135172e-01
1.066582245865859e-02	1.347678e+01	3.133089e-01
1.066583205197292e-02	1.347678e+01	3.132572e-01
1.066584580355954e-02	1.347678e+01	3.133075e-01
1.066586117668656e-02	1.347678e+01	3.134050e-01
1.066587755450612e-02	1.347678e+01	3.135084e-01
1.066589720455802e-02	1.347678e+01	3.136055e-01
1.066591593231399e-02	1.347678e+01	3.136663e-01
1.066593720920406e-02	1.347678e+01	3.137021e-01
1.066596175534599e-02	1.347678e+01	3.137183e-01
1.066597323760977e-02	1.347678e+01	3.137200e-01
1.066598042839826e-02	1.347678e+01	3.137188e-01
1.066598899401618e-02	1.347678e+01	3.137167e-01
1.066599816313377e-02	1.347678e+01	3.137145e-01
1.066600828847860e-02	1.347678e+01	3.137121e-01
1.066601865065875e-02	1.347678e+01	3.137102e-01
1.066603019061919e-02	1.347678e+01	3.137085e-01
1.066604516576728e-02	1.347678e+01	3.137079e-01
1.066606560386061e-02	1.347678e+01	3.137086e-01
1.066609485512079e-02	1.347678e+01	3.137126e-01
1.066613340001840e-02	1.347678e+01	3.137200e-01
1.066617126348855e-02	1.347678e+01	3.137282e-01
1.066621537665419e-02	1.347678e+01	3.137375e-01
1.066626246282390e-02	1.347678e+01	3.137470e-01
1.066634679004969e-02	1.347678e+01	3.137635e-01
1.066714954116490e-02	1.347677e+01	3.139213e-01
1.066795229228011e-02	1.347676e+01	3.140791e-01
1.066875504339532e-02	1.347675e+01	3.142369e-01
1.066955779451053e-02	1.347675e+01	3.143947e-01
1.067036054562574e-02	1.347674e+01	3.145526e-01
1.067116329674095e-02	1.347673e+01	3.147104e-01
1.067196604785616e-02	1.347673e+01	3.148682e-01
1.067278295864165e-02	1.347672e+01	3.150352e-01
1.067359986942715e-02	1.347672e+01	3.152001e-01
1.067441678021264e-02	1.347671e+01	3.153630e-01
1.067523369099814e-02	1.347670e+01	3.155237e-01
1.067605060178363e-02	1.347669e+01	3.156824e-01
1.067686751256913e-02	1.347669e+01	3.158390e-01
1.067768442335462e-02	1.347668e+01	3.159935e-01
1.067768533491940e-02	1.347668e+01	3.162598e-01
1.067768715804895e-02	1.347668e+01	3.201052e-01
1.067769080430804e-02	1.347668e+01	3.468353e-01
1.067769649946909e-02	1.347668e+01	4.525295e-01
1.067770186926224e-02	1.347668e+01	6.911997e-01
1.067770694339554e-02	1.347668e+01	1.197468e+00
1.067771167013425e-02	1.347668e+01	2.126621e+00
1.067771600842470e-02	1.347668e+01	3.545952e+00
1.067772021632252e-02	1.347668e+01	5.425714e+00
1.067772505557759e-02	1.347668e+01	7.790915e+00
1.067773011611900e-02	1.347668e+01	9.913352e+00
1.067773605428974e-02	1.347668e+01	1.157232e+01
1.067774258406625e-02	1.347668e+01	1.254911e+01
1.067774720410845e-02	1.347668e+01	1.285654e+01
1.067775290017190e-02	1.347668e+01	1.300299e+01
1.067775885679211e-02	1.347668e+01	1.306402e+01
1.067776804534304e-02	1.347668e+01	1.309210e+01
1.067777919322583e-02	1.347668e+01	1.309773e+01
1.067779875820551e-02	1.347668e+01	1.309106e+01
